! NanoVNA-App
! Date: 2025-01-28 11:28:16
! Start: 50kHz Stop: 5GHz Points: 101
! S-Parameter data: F S11 S21 S12 S22
# Hz S RI R 50
!     Frequency           S11_Real           S11_Imag           S21_Real           S21_Imag           S12_Real           S12_Imag           S22_Real           S22_Imag
          50000   -1,000463009e+00   -1,028560661e-02   -5,446404430e-06   -7,623501915e-06    0,000000000e+00    0,000000000e+00    0,000000000e+00    0,000000000e+00
       50049500   -9,076464772e-01    3,665325046e-01   -4,125012783e-04    5,769410171e-03    0,000000000e+00    0,000000000e+00    0,000000000e+00    0,000000000e+00
      100049000   -7,014912963e-01    6,716291904e-01    7,141646347e-04    1,276737731e-02    0,000000000e+00    0,000000000e+00    0,000000000e+00    0,000000000e+00
      150048500   -3,983100355e-01    8,783894777e-01    4,134793766e-03    1,764172688e-02    0,000000000e+00    0,000000000e+00    0,000000000e+00    0,000000000e+00
      200048000   -3,443295509e-02    9,507475495e-01    6,131671835e-03    2,226715907e-02    0,000000000e+00    0,000000000e+00    0,000000000e+00    0,000000000e+00
      250047500    3,107140362e-01    8,915449381e-01    8,972632699e-03    3,001322597e-02    0,000000000e+00    0,000000000e+00    0,000000000e+00    0,000000000e+00
      300047000    6,300657988e-01    6,955697536e-01    1,808830723e-02    3,696916625e-02    0,000000000e+00    0,000000000e+00    0,000000000e+00    0,000000000e+00
      350046500    8,390194774e-01    3,901163042e-01    2,788444981e-02    3,841057420e-02    0,000000000e+00    0,000000000e+00    0,000000000e+00    0,000000000e+00
      400046000    9,152681828e-01    2,300833724e-02    3,601724282e-02    3,975689411e-02    0,000000000e+00    0,000000000e+00    0,000000000e+00    0,000000000e+00
      450045500    8,354978561e-01   -3,197945952e-01    4,643026739e-02    4,048742354e-02    0,000000000e+00    0,000000000e+00    0,000000000e+00    0,000000000e+00
      500045000    6,574433446e-01   -6,194502115e-01    5,947645754e-02    3,821206838e-02    0,000000000e+00    0,000000000e+00    0,000000000e+00    0,000000000e+00
      550044500    3,577631712e-01   -8,259054422e-01    6,950020045e-02    3,130060434e-02    0,000000000e+00    0,000000000e+00    0,000000000e+00    0,000000000e+00
      600044000    1,147251949e-02   -8,910533190e-01    7,973857224e-02    2,508058213e-02    0,000000000e+00    0,000000000e+00    0,000000000e+00    0,000000000e+00
      650043500   -3,421805799e-01   -8,087776303e-01    9,009420127e-02    1,107456349e-02    0,000000000e+00    0,000000000e+00    0,000000000e+00    0,000000000e+00
      700043000   -5,997395515e-01   -5,831287503e-01    8,945318311e-02   -2,971294336e-03    0,000000000e+00    0,000000000e+00    0,000000000e+00    0,000000000e+00
      750042500   -7,281734347e-01   -3,206258416e-01    9,012049437e-02   -8,236259222e-03    0,000000000e+00    0,000000000e+00    0,000000000e+00    0,000000000e+00
      800042000   -8,182774186e-01   -6,467720959e-04    9,622362256e-02   -1,861418411e-02    0,000000000e+00    0,000000000e+00    0,000000000e+00    0,000000000e+00
      850041500   -6,373115778e-01    3,718353510e-01    9,017898142e-02   -3,295287862e-02    0,000000000e+00    0,000000000e+00    0,000000000e+00    0,000000000e+00
      900041000   -3,138686717e-01    4,764027894e-01    9,156146646e-02   -3,469907120e-02    0,000000000e+00    0,000000000e+00    0,000000000e+00    0,000000000e+00
      950040500   -1,457476169e-01    3,024912477e-01    9,835831821e-02   -4,377388209e-02    0,000000000e+00    0,000000000e+00    0,000000000e+00    0,000000000e+00
     1000040000   -1,515001506e-01    3,226116598e-01    8,770933002e-02   -7,427958399e-02    0,000000000e+00    0,000000000e+00    0,000000000e+00    0,000000000e+00
     1050039500    3,608936667e-01    2,963405848e-01   -8,872607723e-03   -1,214169189e-01    0,000000000e+00    0,000000000e+00    0,000000000e+00    0,000000000e+00
     1100039000    3,999651968e-01   -3,522719741e-01   -1,068093777e-01   -5,998448655e-02    0,000000000e+00    0,000000000e+00    0,000000000e+00    0,000000000e+00
     1150038500   -2,787139118e-01   -4,655923545e-01   -1,068724990e-01    4,374563321e-02    0,000000000e+00    0,000000000e+00    0,000000000e+00    0,000000000e+00
     1200038000   -5,152647495e-01    2,221304327e-01   -4,278004915e-02    1,110109463e-01    0,000000000e+00    0,000000000e+00    0,000000000e+00    0,000000000e+00
     1250037500    2,018598318e-01    5,419335365e-01    6,799864024e-02    1,163821965e-01    0,000000000e+00    0,000000000e+00    0,000000000e+00    0,000000000e+00
     1300037000    4,995540082e-01   -1,534313709e-01    1,429334432e-01   -2,712580143e-03    0,000000000e+00    0,000000000e+00    0,000000000e+00    0,000000000e+00
     1350036500   -1,087127477e-01   -4,686694741e-01    8,481984586e-02   -1,127258241e-01    0,000000000e+00    0,000000000e+00    0,000000000e+00    0,000000000e+00
     1400036000   -5,332232714e-01    1,095407084e-01   -3,360895813e-02   -1,475406140e-01    0,000000000e+00    0,000000000e+00    0,000000000e+00    0,000000000e+00
     1450035500    9,929016978e-02    5,861286521e-01   -1,582056880e-01   -6,238134205e-02    0,000000000e+00    0,000000000e+00    0,000000000e+00    0,000000000e+00
     1500035000    5,213264227e-01   -2,973977849e-02   -1,381077766e-01    1,034886241e-01    0,000000000e+00    0,000000000e+00    0,000000000e+00    0,000000000e+00
     1550034500    1,532996073e-02   -4,920996428e-01    8,745195810e-04    1,673055440e-01    0,000000000e+00    0,000000000e+00    0,000000000e+00    0,000000000e+00
     1600034000   -6,080372930e-01   -6,688113511e-02    1,366871297e-01    1,065576747e-01    0,000000000e+00    0,000000000e+00    0,000000000e+00    0,000000000e+00
     1650033500   -1,864937693e-01    6,784694791e-01    1,755426079e-01   -5,430131778e-02    0,000000000e+00    0,000000000e+00    0,000000000e+00    0,000000000e+00
     1700033000    5,316421390e-01    3,091425598e-01    5,348045751e-02   -1,765293926e-01    0,000000000e+00    0,000000000e+00    0,000000000e+00    0,000000000e+00
     1750032500    3,539486229e-01   -3,962481320e-01   -1,093942672e-01   -1,463830024e-01    0,000000000e+00    0,000000000e+00    0,000000000e+00    0,000000000e+00
     1800032000   -4,089256823e-01   -4,566265941e-01   -1,856563985e-01   -1,229493530e-03    0,000000000e+00    0,000000000e+00    0,000000000e+00    0,000000000e+00
     1850031500   -6,613084078e-01    3,804600835e-01   -1,112595797e-01    1,534585953e-01    0,000000000e+00    0,000000000e+00    0,000000000e+00    0,000000000e+00
     1900031000    1,476809084e-01    7,156073451e-01    5,795350671e-02    1,824051887e-01    0,000000000e+00    0,000000000e+00    0,000000000e+00    0,000000000e+00
     1950030500    5,852165222e-01    4,976775870e-02    1,825774163e-01    6,427279860e-02    0,000000000e+00    0,000000000e+00    0,000000000e+00    0,000000000e+00
     2000030000    8,444124460e-02   -5,647586584e-01    1,605869085e-01   -1,127131209e-01    0,000000000e+00    0,000000000e+00    0,000000000e+00    0,000000000e+00
     2050029500   -7,051054835e-01   -2,086736858e-01    2,405894920e-03   -1,966241449e-01    0,000000000e+00    0,000000000e+00    0,000000000e+00    0,000000000e+00
     2100029000   -4,480693936e-01    6,552295685e-01   -1,559620798e-01   -1,215777248e-01    0,000000000e+00    0,000000000e+00    0,000000000e+00    0,000000000e+00
     2150028500    3,829727173e-01    5,254980326e-01   -1,985031068e-01    5,397335812e-02    0,000000000e+00    0,000000000e+00    0,000000000e+00    0,000000000e+00
     2200028000    4,351087511e-01   -2,752247155e-01   -6,639245152e-02    2,008029819e-01    0,000000000e+00    0,000000000e+00    0,000000000e+00    0,000000000e+00
     2250027500   -3,270730674e-01   -5,158126354e-01    1,225171164e-01    1,623034924e-01    0,000000000e+00    0,000000000e+00    0,000000000e+00    0,000000000e+00
     2300027000   -7,127986550e-01    1,733073294e-01    1,981763244e-01    6,177069154e-03    0,000000000e+00    0,000000000e+00    0,000000000e+00    0,000000000e+00
     2350026500   -1,209551319e-01    6,553027630e-01    1,363884509e-01   -1,592902690e-01    0,000000000e+00    0,000000000e+00    0,000000000e+00    0,000000000e+00
     2400026000    4,346851707e-01    1,445972472e-01   -6,188345701e-02   -2,135865092e-01    0,000000000e+00    0,000000000e+00    0,000000000e+00    0,000000000e+00
     2450025500    4,267076775e-02   -4,430525899e-01   -2,022122145e-01   -6,184639782e-02    0,000000000e+00    0,000000000e+00    0,000000000e+00    0,000000000e+00
     2500025000   -5,465888381e-01   -2,189591229e-01   -1,666270643e-01    1,101700142e-01    0,000000000e+00    0,000000000e+00    0,000000000e+00    0,000000000e+00
     2550024500   -4,603340030e-01    3,767314851e-01   -2,734478749e-02    2,090784460e-01    0,000000000e+00    0,000000000e+00    0,000000000e+00    0,000000000e+00
     2600024000    1,528070271e-01    3,329001069e-01    1,701667905e-01    1,553556621e-01    0,000000000e+00    0,000000000e+00    0,000000000e+00    0,000000000e+00
     2650023500    1,206534654e-01   -2,230583876e-01    2,203250080e-01   -5,697162449e-02    0,000000000e+00    0,000000000e+00    0,000000000e+00    0,000000000e+00
     2700023000   -3,323121667e-01   -2,602196336e-01    8,864875138e-02   -2,005126476e-01    0,000000000e+00    0,000000000e+00    0,000000000e+00    0,000000000e+00
     2750022500   -4,069313705e-01    1,588550061e-01   -1,049396768e-01   -2,079400271e-01    0,000000000e+00    0,000000000e+00    0,000000000e+00    0,000000000e+00
     2800022000    5,721522868e-02    1,507624388e-01   -2,463280410e-01   -2,584302612e-02    0,000000000e+00    0,000000000e+00    0,000000000e+00    0,000000000e+00
     2850021500   -3,986395523e-02   -2,910703123e-01   -1,540961862e-01    1,730396301e-01    0,000000000e+00    0,000000000e+00    0,000000000e+00    0,000000000e+00
     2900021000   -4,726524651e-01   -1,934728622e-01    2,594901063e-02    2,315818667e-01    0,000000000e+00    0,000000000e+00    0,000000000e+00    0,000000000e+00
     2950020500   -3,132939637e-01    3,441652954e-01    2,335478663e-01    1,333739460e-01    0,000000000e+00    0,000000000e+00    0,000000000e+00    0,000000000e+00
     3000020000    2,872431278e-01    4,254705459e-02    2,280490100e-01   -1,448288262e-01    0,000000000e+00    0,000000000e+00    0,000000000e+00    0,000000000e+00
     3050019500    3,855622187e-02   -5,139777064e-01    1,601491682e-02   -2,321948409e-01    0,000000000e+00    0,000000000e+00    0,000000000e+00    0,000000000e+00
     3100019000   -5,402961373e-01   -4,633799493e-01   -1,494748443e-01   -1,667582393e-01    0,000000000e+00    0,000000000e+00    0,000000000e+00    0,000000000e+00
     3150018500   -6,642563939e-01    2,547686994e-01   -2,492950112e-01    6,909777876e-03    0,000000000e+00    0,000000000e+00    0,000000000e+00    0,000000000e+00
     3200018000    1,888884902e-01    4,063405693e-01   -1,311465204e-01    2,227403522e-01    0,000000000e+00    0,000000000e+00    0,000000000e+00    0,000000000e+00
     3250017500    3,860874176e-01   -2,925274670e-01    8,728252351e-02    2,149269432e-01    0,000000000e+00    0,000000000e+00    0,000000000e+00    0,000000000e+00
     3300017000   -4,716838151e-02   -6,717643738e-01    2,045100927e-01    8,689002693e-02    0,000000000e+00    0,000000000e+00    0,000000000e+00    0,000000000e+00
     3350016500   -6,356301308e-01   -4,787655175e-01    2,321090996e-01   -9,146906435e-02    0,000000000e+00    0,000000000e+00    0,000000000e+00    0,000000000e+00
     3400016000   -6,011591554e-01    3,355398774e-01    8,515055478e-02   -2,918303907e-01    0,000000000e+00    0,000000000e+00    0,000000000e+00    0,000000000e+00
     3450015500    2,745685577e-01    3,553578556e-01   -2,265701890e-01   -2,457571924e-01    0,000000000e+00    0,000000000e+00    0,000000000e+00    0,000000000e+00
     3500015000    4,485382736e-01   -3,228346705e-01   -3,292120695e-01    5,351121351e-02    0,000000000e+00    0,000000000e+00    0,000000000e+00    0,000000000e+00
     3550014500    2,028031088e-02   -7,153511047e-01   -1,621636599e-01    2,994922698e-01    0,000000000e+00    0,000000000e+00    0,000000000e+00    0,000000000e+00
     3600014000   -5,909526944e-01   -5,193689466e-01    1,600982696e-01    3,421964943e-01    0,000000000e+00    0,000000000e+00    0,000000000e+00    0,000000000e+00
     3650013500   -5,837885737e-01    2,627107501e-01    4,267609417e-01    6,125639752e-02    0,000000000e+00    0,000000000e+00    0,000000000e+00    0,000000000e+00
     3700013000    2,490512133e-01    3,789844513e-01    2,662976086e-01   -3,662410676e-01    0,000000000e+00    0,000000000e+00    0,000000000e+00    0,000000000e+00
     3750012500    4,924965501e-01   -2,749156058e-01   -1,467455775e-01   -3,984950185e-01    0,000000000e+00    0,000000000e+00    0,000000000e+00    0,000000000e+00
     3800012000    7,663626969e-02   -6,756283641e-01   -3,877628148e-01   -1,011533961e-01    0,000000000e+00    0,000000000e+00    0,000000000e+00    0,000000000e+00
     3850011500   -4,694795609e-01   -5,019822121e-01   -3,212719262e-01    2,487160712e-01    0,000000000e+00    0,000000000e+00    0,000000000e+00    0,000000000e+00
     3900011000   -5,237876773e-01    1,835489720e-01    6,412410736e-02    4,294315279e-01    0,000000000e+00    0,000000000e+00    0,000000000e+00    0,000000000e+00
     3950010500    1,950286031e-01    3,810022175e-01    4,138092697e-01    1,341756284e-01    0,000000000e+00    0,000000000e+00    0,000000000e+00    0,000000000e+00
     4000010000    4,733492434e-01   -1,831453741e-01    2,854592800e-01   -2,615033388e-01    0,000000000e+00    0,000000000e+00    0,000000000e+00    0,000000000e+00
     4050009500    1,303102076e-01   -5,623388886e-01   -3,429329395e-02   -3,380309641e-01    0,000000000e+00    0,000000000e+00    0,000000000e+00    0,000000000e+00
     4100009000   -3,647560179e-01   -4,439089894e-01   -2,743261158e-01   -1,805060357e-01    0,000000000e+00    0,000000000e+00    0,000000000e+00    0,000000000e+00
     4150008500   -4,590812624e-01    1,641843021e-01   -3,115513921e-01    1,323566735e-01    0,000000000e+00    0,000000000e+00    0,000000000e+00    0,000000000e+00
     4200008000    1,613309830e-01    3,594144881e-01   -3,258240595e-02    3,256343305e-01    0,000000000e+00    0,000000000e+00    0,000000000e+00    0,000000000e+00
     4250007500    4,056644142e-01   -1,077807695e-01    2,200467288e-01    1,747029871e-01    0,000000000e+00    0,000000000e+00    0,000000000e+00    0,000000000e+00
     4300007000    1,347880363e-01   -4,366538525e-01    2,394880056e-01   -5,492327735e-02    0,000000000e+00    0,000000000e+00    0,000000000e+00    0,000000000e+00
     4350006500   -2,939847708e-01   -3,528122604e-01    1,091986448e-01   -2,156171501e-01    0,000000000e+00    0,000000000e+00    0,000000000e+00    0,000000000e+00
     4400006000   -3,529487550e-01    1,452868432e-01   -1,222130284e-01   -2,173490822e-01    0,000000000e+00    0,000000000e+00    0,000000000e+00    0,000000000e+00
     4450005500    1,132908911e-01    2,559829354e-01   -2,338167429e-01   -3,589896252e-03    0,000000000e+00    0,000000000e+00    0,000000000e+00    0,000000000e+00
     4500005000    2,605522573e-01   -7,482527196e-02   -1,203740686e-01    1,668913662e-01    0,000000000e+00    0,000000000e+00    0,000000000e+00    0,000000000e+00
     4550004500    5,011056736e-02   -2,640803158e-01    5,338794738e-02    1,817838550e-01    0,000000000e+00    0,000000000e+00    0,000000000e+00    0,000000000e+00
     4600004000   -1,429843009e-01   -1,261499822e-01    1,729107797e-01    6,189872697e-02    0,000000000e+00    0,000000000e+00    0,000000000e+00    0,000000000e+00
     4650003500   -4,491604865e-02    4,197392613e-03    1,439718306e-01   -9,150223434e-02    0,000000000e+00    0,000000000e+00    0,000000000e+00    0,000000000e+00
     4700003000   -1,588211395e-02   -7,267232239e-02    7,771049626e-03   -1,541251242e-01    0,000000000e+00    0,000000000e+00    0,000000000e+00    0,000000000e+00
     4750002500   -9,396221489e-02   -4,168251995e-03   -1,085204408e-01   -8,908259869e-02    0,000000000e+00    0,000000000e+00    0,000000000e+00    0,000000000e+00
     4800002000    1,806464791e-02    9,821682423e-02   -1,248917282e-01    3,254921734e-02    0,000000000e+00    0,000000000e+00    0,000000000e+00    0,000000000e+00
     4850001500    1,843090653e-01    2,406271175e-02   -4,573785886e-02    1,060702652e-01    0,000000000e+00    0,000000000e+00    0,000000000e+00    0,000000000e+00
     4900001000    1,965386569e-01   -2,062849253e-01    5,025294051e-02    9,569245577e-02    0,000000000e+00    0,000000000e+00    0,000000000e+00    0,000000000e+00
     4950000500   -7,338029891e-02   -3,550991714e-01    1,016582400e-01    1,627662033e-02    0,000000000e+00    0,000000000e+00    0,000000000e+00    0,000000000e+00
     5000000000   -3,784788549e-01   -3,916340694e-02    6,257025898e-02   -7,066933811e-02    0,000000000e+00    0,000000000e+00    0,000000000e+00    0,000000000e+00
