! NanoVNA-App
! Date: 2025-01-28 11:27:07
! Start: 50kHz Stop: 25MHz Points: 101
! S-Parameter data: F S11 S21 S12 S22
# Hz S RI R 50
!     Frequency           S11_Real           S11_Imag           S21_Real           S21_Imag           S12_Real           S12_Imag           S22_Real           S22_Imag
          50000   -9,978284836e-01   -5,958164576e-03   -1,115524719e-05   -2,177678107e-05    0,000000000e+00    0,000000000e+00    0,000000000e+00    0,000000000e+00
         299500   -3,789251804e+00   -4,893816262e-02    2,653876618e-05    1,376743894e-04    0,000000000e+00    0,000000000e+00    0,000000000e+00    0,000000000e+00
         549000   -3,575421333e+00    1,623597860e+00    1,470389107e-04    1,428687101e-04    0,000000000e+00    0,000000000e+00    0,000000000e+00    0,000000000e+00
         798500   -3,110548019e+00    1,719756961e+00    2,172602835e-04    1,942777162e-04    0,000000000e+00    0,000000000e+00    0,000000000e+00    0,000000000e+00
        1048000   -2,931082249e+00    1,657469869e+00    2,412823960e-04    3,308843879e-04    0,000000000e+00    0,000000000e+00    0,000000000e+00    0,000000000e+00
        1297500   -2,829138756e+00    1,582304716e+00    3,086445213e-04    2,841879614e-04    0,000000000e+00    0,000000000e+00    0,000000000e+00    0,000000000e+00
        1547000   -2,749863148e+00    1,499968290e+00    2,173298271e-04    2,928498434e-04    0,000000000e+00    0,000000000e+00    0,000000000e+00    0,000000000e+00
        1796500   -2,679798603e+00    1,416540742e+00    2,829898149e-04    3,181100183e-04    0,000000000e+00    0,000000000e+00    0,000000000e+00    0,000000000e+00
        2046000   -2,612369061e+00    1,329782367e+00    2,809762082e-04    3,376562672e-04    0,000000000e+00    0,000000000e+00    0,000000000e+00    0,000000000e+00
        2295500   -2,544754267e+00    1,239978790e+00    2,864917915e-04    4,978558281e-04    0,000000000e+00    0,000000000e+00    0,000000000e+00    0,000000000e+00
        2545000   -2,476796865e+00    1,149881959e+00    2,667753724e-04    4,614855279e-04    0,000000000e+00    0,000000000e+00    0,000000000e+00    0,000000000e+00
        2794500   -2,408681631e+00    1,061470509e+00    3,514235141e-04    5,796702462e-04    0,000000000e+00    0,000000000e+00    0,000000000e+00    0,000000000e+00
        3044000   -2,339460373e+00    9,741390347e-01    2,800499788e-04    5,062093842e-04    0,000000000e+00    0,000000000e+00    0,000000000e+00    0,000000000e+00
        3293500   -2,269808292e+00    8,918910027e-01    3,682182869e-04    5,541365827e-04    0,000000000e+00    0,000000000e+00    0,000000000e+00    0,000000000e+00
        3543000   -2,200863361e+00    8,126540780e-01    3,506110806e-04    6,939178566e-04    0,000000000e+00    0,000000000e+00    0,000000000e+00    0,000000000e+00
        3792500   -2,130223751e+00    7,394896150e-01    3,897456918e-04    6,752164918e-04    0,000000000e+00    0,000000000e+00    0,000000000e+00    0,000000000e+00
        4042000   -2,059737444e+00    6,701294184e-01    3,584164369e-04    6,473812391e-04    0,000000000e+00    0,000000000e+00    0,000000000e+00    0,000000000e+00
        4291500   -1,991637826e+00    6,049296260e-01    3,257973294e-04    7,615362993e-04    0,000000000e+00    0,000000000e+00    0,000000000e+00    0,000000000e+00
        4541000   -1,923198342e+00    5,455935597e-01    3,896803537e-04    7,596270880e-04    0,000000000e+00    0,000000000e+00    0,000000000e+00    0,000000000e+00
        4790500   -1,856214166e+00    4,903948903e-01    3,224354878e-04    7,929283311e-04    0,000000000e+00    0,000000000e+00    0,000000000e+00    0,000000000e+00
        5040000   -1,790877342e+00    4,421256185e-01    3,130455443e-04    7,943411474e-04    0,000000000e+00    0,000000000e+00    0,000000000e+00    0,000000000e+00
        5289500   -1,727056146e+00    3,950886428e-01    3,420611320e-04    7,981923991e-04    0,000000000e+00    0,000000000e+00    0,000000000e+00    0,000000000e+00
        5539000   -1,664664745e+00    3,549199402e-01    3,544246429e-04    8,135256940e-04    0,000000000e+00    0,000000000e+00    0,000000000e+00    0,000000000e+00
        5788500   -1,604948759e+00    3,174167871e-01    3,390453639e-04    8,366979891e-04    0,000000000e+00    0,000000000e+00    0,000000000e+00    0,000000000e+00
        6038000   -1,548206329e+00    2,849857211e-01    2,866769210e-04    8,877080400e-04    0,000000000e+00    0,000000000e+00    0,000000000e+00    0,000000000e+00
        6287500   -1,493114352e+00    2,555660903e-01    2,830061421e-04    8,724069921e-04    0,000000000e+00    0,000000000e+00    0,000000000e+00    0,000000000e+00
        6537000   -1,440463305e+00    2,286536694e-01    2,600463631e-04    8,619104046e-04    0,000000000e+00    0,000000000e+00    0,000000000e+00    0,000000000e+00
        6786500   -1,391263604e+00    2,058982700e-01    2,352189913e-04    9,468842181e-04    0,000000000e+00    0,000000000e+00    0,000000000e+00    0,000000000e+00
        7036000   -1,343667984e+00    1,850246340e-01    2,046772570e-04    9,127195808e-04    0,000000000e+00    0,000000000e+00    0,000000000e+00    0,000000000e+00
        7285500   -1,298615217e+00    1,667070836e-01    1,749109651e-04    8,958700346e-04    0,000000000e+00    0,000000000e+00    0,000000000e+00    0,000000000e+00
        7535000   -1,257537246e+00    1,508439034e-01    1,732241071e-04    9,584696381e-04    0,000000000e+00    0,000000000e+00    0,000000000e+00    0,000000000e+00
        7784500   -1,218164921e+00    1,364448071e-01    1,294008835e-04    9,162677452e-04    0,000000000e+00    0,000000000e+00    0,000000000e+00    0,000000000e+00
        8034000   -1,181998849e+00    1,247384474e-01    8,967309986e-05    9,763839771e-04    0,000000000e+00    0,000000000e+00    0,000000000e+00    0,000000000e+00
        8283500   -1,148406625e+00    1,150439158e-01    6,408226182e-05    1,009403379e-03    0,000000000e+00    0,000000000e+00    0,000000000e+00    0,000000000e+00
        8533000   -1,116373181e+00    1,063484028e-01    8,857795183e-05    1,020090654e-03    0,000000000e+00    0,000000000e+00    0,000000000e+00    0,000000000e+00
        8782500   -1,087157845e+00    9,862565994e-02    2,579728971e-05    1,017639413e-03    0,000000000e+00    0,000000000e+00    0,000000000e+00    0,000000000e+00
        9032000   -1,061680555e+00    9,250161797e-02    1,072477153e-05    1,079567824e-03    0,000000000e+00    0,000000000e+00    0,000000000e+00    0,000000000e+00
        9281500   -1,038689017e+00    8,786073327e-02   -8,151384463e-06    1,015980146e-03    0,000000000e+00    0,000000000e+00    0,000000000e+00    0,000000000e+00
        9531000   -1,016594172e+00    8,388556540e-02   -6,468166248e-05    1,012097113e-03    0,000000000e+00    0,000000000e+00    0,000000000e+00    0,000000000e+00
        9780500   -9,984757304e-01    8,120357990e-02   -6,431154179e-05    1,071362523e-03    0,000000000e+00    0,000000000e+00    0,000000000e+00    0,000000000e+00
       10030000   -9,824146032e-01    7,905475050e-02   -1,478959603e-04    1,113111735e-03    0,000000000e+00    0,000000000e+00    0,000000000e+00    0,000000000e+00
       10279500   -9,680850506e-01    7,801717520e-02   -1,152656187e-04    1,110325218e-03    0,000000000e+00    0,000000000e+00    0,000000000e+00    0,000000000e+00
       10529000   -9,564074278e-01    7,736901194e-02   -1,645768061e-04    1,131726196e-03    0,000000000e+00    0,000000000e+00    0,000000000e+00    0,000000000e+00
       10778500   -9,446848035e-01    7,665134221e-02   -1,139681335e-04    1,132209087e-03    0,000000000e+00    0,000000000e+00    0,000000000e+00    0,000000000e+00
       11028000   -9,347332716e-01    7,643444836e-02   -1,394582068e-04    1,145374728e-03    0,000000000e+00    0,000000000e+00    0,000000000e+00    0,000000000e+00
       11277500   -9,262564778e-01    7,669749856e-02   -1,783413609e-04    1,173396129e-03    0,000000000e+00    0,000000000e+00    0,000000000e+00    0,000000000e+00
       11527000   -9,192165732e-01    7,757144421e-02   -2,071757190e-04    1,223075902e-03    0,000000000e+00    0,000000000e+00    0,000000000e+00    0,000000000e+00
       11776500   -9,126655459e-01    7,876711339e-02   -1,987328287e-04    1,228288980e-03    0,000000000e+00    0,000000000e+00    0,000000000e+00    0,000000000e+00
       12026000   -9,080258012e-01    7,973100990e-02   -2,328626870e-04    1,204923494e-03    0,000000000e+00    0,000000000e+00    0,000000000e+00    0,000000000e+00
       12275500   -9,043623209e-01    8,051992208e-02   -2,452406043e-04    1,262274920e-03    0,000000000e+00    0,000000000e+00    0,000000000e+00    0,000000000e+00
       12525000   -9,016398787e-01    8,295866847e-02   -2,215677086e-04    1,336747548e-03    0,000000000e+00    0,000000000e+00    0,000000000e+00    0,000000000e+00
       12774500   -8,992404342e-01    8,474382013e-02   -2,556384134e-04    1,292372704e-03    0,000000000e+00    0,000000000e+00    0,000000000e+00    0,000000000e+00
       13024000   -8,981046677e-01    8,673547953e-02   -2,720791672e-04    1,327266451e-03    0,000000000e+00    0,000000000e+00    0,000000000e+00    0,000000000e+00
       13273500   -8,973293900e-01    8,842047304e-02   -2,607483475e-04    1,380475587e-03    0,000000000e+00    0,000000000e+00    0,000000000e+00    0,000000000e+00
       13523000   -8,972681165e-01    9,079522640e-02   -2,506920137e-04    1,347837038e-03    0,000000000e+00    0,000000000e+00    0,000000000e+00    0,000000000e+00
       13772500   -8,982589245e-01    9,331523627e-02   -2,817484492e-04    1,390547142e-03    0,000000000e+00    0,000000000e+00    0,000000000e+00    0,000000000e+00
       14022000   -8,996703029e-01    9,580143541e-02   -2,725321683e-04    1,413270948e-03    0,000000000e+00    0,000000000e+00    0,000000000e+00    0,000000000e+00
       14271500   -9,012482166e-01    9,807758033e-02   -2,710306726e-04    1,485942397e-03    0,000000000e+00    0,000000000e+00    0,000000000e+00    0,000000000e+00
       14521000   -9,034206271e-01    1,007011458e-01   -2,574562095e-04    1,499542152e-03    0,000000000e+00    0,000000000e+00    0,000000000e+00    0,000000000e+00
       14770500   -9,064804912e-01    1,029953137e-01   -2,661418694e-04    1,502692467e-03    0,000000000e+00    0,000000000e+00    0,000000000e+00    0,000000000e+00
       15020000   -9,097671509e-01    1,057917327e-01   -2,550241188e-04    1,590473694e-03    0,000000000e+00    0,000000000e+00    0,000000000e+00    0,000000000e+00
       15269500   -9,132257700e-01    1,087057218e-01   -2,638586157e-04    1,551571186e-03    0,000000000e+00    0,000000000e+00    0,000000000e+00    0,000000000e+00
       15519000   -9,175778031e-01    1,113385260e-01   -2,788297716e-04    1,648203470e-03    0,000000000e+00    0,000000000e+00    0,000000000e+00    0,000000000e+00
       15768500   -9,215381742e-01    1,136806458e-01   -2,586851770e-04    1,627259771e-03    0,000000000e+00    0,000000000e+00    0,000000000e+00    0,000000000e+00
       16018000   -9,252932668e-01    1,167744324e-01   -3,416413383e-04    1,659771311e-03    0,000000000e+00    0,000000000e+00    0,000000000e+00    0,000000000e+00
       16267500   -9,300536513e-01    1,193591282e-01   -2,475370420e-04    1,761321560e-03    0,000000000e+00    0,000000000e+00    0,000000000e+00    0,000000000e+00
       16517000   -9,352283478e-01    1,225592047e-01   -2,588455391e-04    1,723413472e-03    0,000000000e+00    0,000000000e+00    0,000000000e+00    0,000000000e+00
       16766500   -9,395260811e-01    1,252231449e-01   -2,261360059e-04    1,784224645e-03    0,000000000e+00    0,000000000e+00    0,000000000e+00    0,000000000e+00
       17016000   -9,435992241e-01    1,275594682e-01   -2,441219985e-04    1,813812531e-03    0,000000000e+00    0,000000000e+00    0,000000000e+00    0,000000000e+00
       17265500   -9,487800598e-01    1,301449090e-01   -2,126038889e-04    1,866980572e-03    0,000000000e+00    0,000000000e+00    0,000000000e+00    0,000000000e+00
       17515000   -9,526582360e-01    1,330060661e-01   -1,955928165e-04    1,876913011e-03    0,000000000e+00    0,000000000e+00    0,000000000e+00    0,000000000e+00
       17764500   -9,570705295e-01    1,353976578e-01   -2,160003060e-04    1,929689432e-03    0,000000000e+00    0,000000000e+00    0,000000000e+00    0,000000000e+00
       18014000   -9,613215327e-01    1,377953291e-01   -2,759090276e-04    1,869279193e-03    0,000000000e+00    0,000000000e+00    0,000000000e+00    0,000000000e+00
       18263500   -9,642943144e-01    1,404314786e-01   -2,109537745e-04    1,974571729e-03    0,000000000e+00    0,000000000e+00    0,000000000e+00    0,000000000e+00
       18513000   -9,668292403e-01    1,423867196e-01   -1,588984596e-04    1,994883409e-03    0,000000000e+00    0,000000000e+00    0,000000000e+00    0,000000000e+00
       18762500   -9,696031809e-01    1,446135938e-01   -2,103464067e-04    2,052652650e-03    0,000000000e+00    0,000000000e+00    0,000000000e+00    0,000000000e+00
       19012000   -9,717901349e-01    1,468729228e-01   -1,736282429e-04    2,030781936e-03    0,000000000e+00    0,000000000e+00    0,000000000e+00    0,000000000e+00
       19261500   -9,741620421e-01    1,491564810e-01   -1,988451841e-04    2,124610590e-03    0,000000000e+00    0,000000000e+00    0,000000000e+00    0,000000000e+00
       19511000   -9,751754403e-01    1,517294794e-01   -1,913907472e-04    2,123641782e-03    0,000000000e+00    0,000000000e+00    0,000000000e+00    0,000000000e+00
       19760500   -9,745668173e-01    1,529186666e-01   -1,564303966e-04    2,152776113e-03    0,000000000e+00    0,000000000e+00    0,000000000e+00    0,000000000e+00
       20010000   -9,748461843e-01    1,553028375e-01   -1,702914160e-04    2,240542090e-03    0,000000000e+00    0,000000000e+00    0,000000000e+00    0,000000000e+00
       20259500   -9,749716520e-01    1,568285525e-01   -1,780735038e-04    2,219974296e-03    0,000000000e+00    0,000000000e+00    0,000000000e+00    0,000000000e+00
       20509000   -9,750041962e-01    1,592828035e-01   -2,327469556e-04    2,236378146e-03    0,000000000e+00    0,000000000e+00    0,000000000e+00    0,000000000e+00
       20758500   -9,736711979e-01    1,609383672e-01   -1,553823822e-04    2,253556158e-03    0,000000000e+00    0,000000000e+00    0,000000000e+00    0,000000000e+00
       21008000   -9,746553898e-01    1,628355086e-01   -2,329951385e-04    2,334291115e-03    0,000000000e+00    0,000000000e+00    0,000000000e+00    0,000000000e+00
       21257500   -9,735009670e-01    1,647590250e-01   -2,311398421e-04    2,315112622e-03    0,000000000e+00    0,000000000e+00    0,000000000e+00    0,000000000e+00
       21507000   -9,731494784e-01    1,665029973e-01   -1,806855580e-04    2,383587416e-03    0,000000000e+00    0,000000000e+00    0,000000000e+00    0,000000000e+00
       21756500   -9,731754661e-01    1,685511321e-01   -1,974014594e-04    2,422965132e-03    0,000000000e+00    0,000000000e+00    0,000000000e+00    0,000000000e+00
       22006000   -9,729235172e-01    1,700957566e-01   -2,115034004e-04    2,447473817e-03    0,000000000e+00    0,000000000e+00    0,000000000e+00    0,000000000e+00
       22255500   -9,726440907e-01    1,720375717e-01   -1,867566607e-04    2,388332272e-03    0,000000000e+00    0,000000000e+00    0,000000000e+00    0,000000000e+00
       22505000   -9,716827273e-01    1,738256067e-01   -1,701594592e-04    2,408368047e-03    0,000000000e+00    0,000000000e+00    0,000000000e+00    0,000000000e+00
       22754500   -9,714941382e-01    1,754810363e-01   -2,076806122e-04    2,535799751e-03    0,000000000e+00    0,000000000e+00    0,000000000e+00    0,000000000e+00
       23004000   -9,715393782e-01    1,778856516e-01   -2,055957011e-04    2,548350720e-03    0,000000000e+00    0,000000000e+00    0,000000000e+00    0,000000000e+00
       23253500   -9,705561399e-01    1,795031130e-01   -2,534003288e-04    2,590086777e-03    0,000000000e+00    0,000000000e+00    0,000000000e+00    0,000000000e+00
       23503000   -9,699929953e-01    1,811605394e-01   -2,249341487e-04    2,599622356e-03    0,000000000e+00    0,000000000e+00    0,000000000e+00    0,000000000e+00
       23752500   -9,698832035e-01    1,826105118e-01   -2,099924168e-04    2,629078692e-03    0,000000000e+00    0,000000000e+00    0,000000000e+00    0,000000000e+00
       24002000   -9,694343805e-01    1,846471727e-01   -2,531178179e-04    2,652120776e-03    0,000000000e+00    0,000000000e+00    0,000000000e+00    0,000000000e+00
       24251500   -9,688743353e-01    1,866782159e-01   -2,234488784e-04    2,681998303e-03    0,000000000e+00    0,000000000e+00    0,000000000e+00    0,000000000e+00
       24501000   -9,687571526e-01    1,882395297e-01   -2,215036802e-04    2,710371977e-03    0,000000000e+00    0,000000000e+00    0,000000000e+00    0,000000000e+00
       24750500   -9,680377841e-01    1,904149354e-01   -2,681723563e-04    2,701761434e-03    0,000000000e+00    0,000000000e+00    0,000000000e+00    0,000000000e+00
       25000000   -9,675410390e-01    1,917840689e-01   -2,124925668e-04    2,750107553e-03    0,000000000e+00    0,000000000e+00    0,000000000e+00    0,000000000e+00
