! NanoVNA-App
! Date: 2025-01-28 12:18:00
! Start: 50kHz Stop: 25MHz Points: 101
! S-Parameter data: F S11 S21 S12 S22
# Hz S RI R 50
!     Frequency           S11_Real           S11_Imag           S21_Real           S21_Imag           S12_Real           S12_Imag           S22_Real           S22_Imag
          50000   -1,011218667e+00   -2,550340258e-02    4,058097693e-05   -1,650187005e-05    0,000000000e+00    0,000000000e+00    0,000000000e+00    0,000000000e+00
         299500   -3,862254620e+00    1,505038440e-01   -3,875251423e-05    3,387588731e-05    0,000000000e+00    0,000000000e+00    0,000000000e+00    0,000000000e+00
         549000   -3,488227606e+00    1,654375911e+00    1,737430430e-04    1,353182161e-04    0,000000000e+00    0,000000000e+00    0,000000000e+00    0,000000000e+00
         798500   -3,078036547e+00    1,717202187e+00    1,115537816e-05    2,434970665e-04    0,000000000e+00    0,000000000e+00    0,000000000e+00    0,000000000e+00
        1048000   -2,910574675e+00    1,658296585e+00    1,009305561e-04    2,769573184e-04    0,000000000e+00    0,000000000e+00    0,000000000e+00    0,000000000e+00
        1297500   -2,811784983e+00    1,584383011e+00    2,701826452e-04    2,889936150e-04    0,000000000e+00    0,000000000e+00    0,000000000e+00    0,000000000e+00
        1547000   -2,733792782e+00    1,505559325e+00    2,256076259e-04    2,605447080e-04    0,000000000e+00    0,000000000e+00    0,000000000e+00    0,000000000e+00
        1796500   -2,661915541e+00    1,420336843e+00    2,827188582e-04    3,098298039e-04    0,000000000e+00    0,000000000e+00    0,000000000e+00    0,000000000e+00
        2046000   -2,593554258e+00    1,330767751e+00    2,546779870e-04    3,636890324e-04    0,000000000e+00    0,000000000e+00    0,000000000e+00    0,000000000e+00
        2295500   -2,524622917e+00    1,237674594e+00    3,113052808e-04    4,588367592e-04    0,000000000e+00    0,000000000e+00    0,000000000e+00    0,000000000e+00
        2545000   -2,456755638e+00    1,147958040e+00    2,957398829e-04    4,595229984e-04    0,000000000e+00    0,000000000e+00    0,000000000e+00    0,000000000e+00
        2794500   -2,390097380e+00    1,057217717e+00    3,672093444e-04    5,043604178e-04    0,000000000e+00    0,000000000e+00    0,000000000e+00    0,000000000e+00
        3044000   -2,322185040e+00    9,688872695e-01    2,829552104e-04    4,901589709e-04    0,000000000e+00    0,000000000e+00    0,000000000e+00    0,000000000e+00
        3293500   -2,254878044e+00    8,859488368e-01    2,666044165e-04    5,719426554e-04    0,000000000e+00    0,000000000e+00    0,000000000e+00    0,000000000e+00
        3543000   -2,185134649e+00    8,048596382e-01    3,292590554e-04    6,180825294e-04    0,000000000e+00    0,000000000e+00    0,000000000e+00    0,000000000e+00
        3792500   -2,116193295e+00    7,314180732e-01    3,138848988e-04    6,124753272e-04    0,000000000e+00    0,000000000e+00    0,000000000e+00    0,000000000e+00
        4042000   -2,047094822e+00    6,612531543e-01    3,685244010e-04    6,592206773e-04    0,000000000e+00    0,000000000e+00    0,000000000e+00    0,000000000e+00
        4291500   -1,979071856e+00    5,965851545e-01    3,466797061e-04    6,985633518e-04    0,000000000e+00    0,000000000e+00    0,000000000e+00    0,000000000e+00
        4541000   -1,911906719e+00    5,369337201e-01    2,758500923e-04    7,066584076e-04    0,000000000e+00    0,000000000e+00    0,000000000e+00    0,000000000e+00
        4790500   -1,845679522e+00    4,813568890e-01    3,660119837e-04    7,606464205e-04    0,000000000e+00    0,000000000e+00    0,000000000e+00    0,000000000e+00
        5040000   -1,780885816e+00    4,319792092e-01    3,582604986e-04    8,293155697e-04    0,000000000e+00    0,000000000e+00    0,000000000e+00    0,000000000e+00
        5289500   -1,716902494e+00    3,861072659e-01    3,806788300e-04    7,814347628e-04    0,000000000e+00    0,000000000e+00    0,000000000e+00    0,000000000e+00
        5539000   -1,655955434e+00    3,463389277e-01    3,418173292e-04    8,241012692e-04    0,000000000e+00    0,000000000e+00    0,000000000e+00    0,000000000e+00
        5788500   -1,597514033e+00    3,082714081e-01    2,870110329e-04    8,479012758e-04    0,000000000e+00    0,000000000e+00    0,000000000e+00    0,000000000e+00
        6038000   -1,540159583e+00    2,763478458e-01    2,227937075e-04    8,504377911e-04    0,000000000e+00    0,000000000e+00    0,000000000e+00    0,000000000e+00
        6287500   -1,486006021e+00    2,459805012e-01    2,536186657e-04    8,253907436e-04    0,000000000e+00    0,000000000e+00    0,000000000e+00    0,000000000e+00
        6537000   -1,434653282e+00    2,202996016e-01    2,588366915e-04    9,573365678e-04    0,000000000e+00    0,000000000e+00    0,000000000e+00    0,000000000e+00
        6786500   -1,384535909e+00    1,968938857e-01    2,521342540e-04    8,800394717e-04    0,000000000e+00    0,000000000e+00    0,000000000e+00    0,000000000e+00
        7036000   -1,338147521e+00    1,764833033e-01    2,178645227e-04    8,802888915e-04    0,000000000e+00    0,000000000e+00    0,000000000e+00    0,000000000e+00
        7285500   -1,293785334e+00    1,584774107e-01    1,613291388e-04    9,568649111e-04    0,000000000e+00    0,000000000e+00    0,000000000e+00    0,000000000e+00
        7535000   -1,252043605e+00    1,426137239e-01    1,747004135e-04    9,455840336e-04    0,000000000e+00    0,000000000e+00    0,000000000e+00    0,000000000e+00
        7784500   -1,214279890e+00    1,285098940e-01    1,272922091e-04    9,623278165e-04    0,000000000e+00    0,000000000e+00    0,000000000e+00    0,000000000e+00
        8034000   -1,178282022e+00    1,168547571e-01    1,162332483e-04    9,363726131e-04    0,000000000e+00    0,000000000e+00    0,000000000e+00    0,000000000e+00
        8283500   -1,144424081e+00    1,069892645e-01    4,710938811e-05    1,001081895e-03    0,000000000e+00    0,000000000e+00    0,000000000e+00    0,000000000e+00
        8533000   -1,113768816e+00    9,898730367e-02    2,131355586e-06    9,849835187e-04    0,000000000e+00    0,000000000e+00    0,000000000e+00    0,000000000e+00
        8782500   -1,085206032e+00    9,173800051e-02    2,781752482e-05    1,013592235e-03    0,000000000e+00    0,000000000e+00    0,000000000e+00    0,000000000e+00
        9032000   -1,058484077e+00    8,507142961e-02   -8,287735909e-06    1,016403316e-03    0,000000000e+00    0,000000000e+00    0,000000000e+00    0,000000000e+00
        9281500   -1,035932899e+00    8,055147529e-02   -5,785386020e-05    1,024189754e-03    0,000000000e+00    0,000000000e+00    0,000000000e+00    0,000000000e+00
        9531000   -1,014986277e+00    7,665529847e-02   -7,849493704e-05    1,074064174e-03    0,000000000e+00    0,000000000e+00    0,000000000e+00    0,000000000e+00
        9780500   -9,960370660e-01    7,374180108e-02   -6,994095747e-05    1,075354521e-03    0,000000000e+00    0,000000000e+00    0,000000000e+00    0,000000000e+00
       10030000   -9,801043272e-01    7,208239287e-02   -8,283276111e-05    1,089783153e-03    0,000000000e+00    0,000000000e+00    0,000000000e+00    0,000000000e+00
       10279500   -9,666496515e-01    7,093643397e-02   -1,080486909e-04    1,085452153e-03    0,000000000e+00    0,000000000e+00    0,000000000e+00    0,000000000e+00
       10529000   -9,542418718e-01    7,084396482e-02   -1,171365438e-04    1,102675567e-03    0,000000000e+00    0,000000000e+00    0,000000000e+00    0,000000000e+00
       10778500   -9,435656071e-01    6,998244673e-02   -1,764786430e-04    1,127215684e-03    0,000000000e+00    0,000000000e+00    0,000000000e+00    0,000000000e+00
       11028000   -9,332075715e-01    7,013012469e-02   -1,888530096e-04    1,170882606e-03    0,000000000e+00    0,000000000e+00    0,000000000e+00    0,000000000e+00
       11277500   -9,252433777e-01    6,985236704e-02   -2,198598231e-04    1,231275499e-03    0,000000000e+00    0,000000000e+00    0,000000000e+00    0,000000000e+00
       11527000   -9,178277254e-01    7,101891190e-02   -1,925531687e-04    1,193283591e-03    0,000000000e+00    0,000000000e+00    0,000000000e+00    0,000000000e+00
       11776500   -9,119921923e-01    7,183515280e-02   -1,780437451e-04    1,212525880e-03    0,000000000e+00    0,000000000e+00    0,000000000e+00    0,000000000e+00
       12026000   -9,073539972e-01    7,317640632e-02   -2,267291420e-04    1,218913239e-03    0,000000000e+00    0,000000000e+00    0,000000000e+00    0,000000000e+00
       12275500   -9,038438797e-01    7,455509156e-02   -2,327075927e-04    1,281979028e-03    0,000000000e+00    0,000000000e+00    0,000000000e+00    0,000000000e+00
       12525000   -9,005089402e-01    7,648699731e-02   -2,811348240e-04    1,301852055e-03    0,000000000e+00    0,000000000e+00    0,000000000e+00    0,000000000e+00
       12774500   -8,987815976e-01    7,815995812e-02   -2,460672404e-04    1,319813542e-03    0,000000000e+00    0,000000000e+00    0,000000000e+00    0,000000000e+00
       13024000   -8,972911835e-01    8,013584465e-02   -2,743132936e-04    1,330298255e-03    0,000000000e+00    0,000000000e+00    0,000000000e+00    0,000000000e+00
       13273500   -8,970717788e-01    8,275673538e-02   -2,829375153e-04    1,369047910e-03    0,000000000e+00    0,000000000e+00    0,000000000e+00    0,000000000e+00
       13523000   -8,966906667e-01    8,480327576e-02   -2,923558350e-04    1,393680228e-03    0,000000000e+00    0,000000000e+00    0,000000000e+00    0,000000000e+00
       13772500   -8,975486755e-01    8,719252050e-02   -2,641104220e-04    1,427636715e-03    0,000000000e+00    0,000000000e+00    0,000000000e+00    0,000000000e+00
       14022000   -8,990964293e-01    8,922275156e-02   -2,971353533e-04    1,479800208e-03    0,000000000e+00    0,000000000e+00    0,000000000e+00    0,000000000e+00
       14271500   -9,005237222e-01    9,122893959e-02   -2,208833175e-04    1,504384098e-03    0,000000000e+00    0,000000000e+00    0,000000000e+00    0,000000000e+00
       14521000   -9,042046666e-01    9,457986057e-02   -2,987978805e-04    1,530969632e-03    0,000000000e+00    0,000000000e+00    0,000000000e+00    0,000000000e+00
       14770500   -9,065624475e-01    9,718324989e-02   -3,005130857e-04    1,522719162e-03    0,000000000e+00    0,000000000e+00    0,000000000e+00    0,000000000e+00
       15020000   -9,094017744e-01    9,954801947e-02   -2,928099129e-04    1,580367796e-03    0,000000000e+00    0,000000000e+00    0,000000000e+00    0,000000000e+00
       15269500   -9,132567048e-01    1,020169780e-01   -2,766101970e-04    1,577830059e-03    0,000000000e+00    0,000000000e+00    0,000000000e+00    0,000000000e+00
       15519000   -9,174811840e-01    1,045108363e-01   -2,577202977e-04    1,621439587e-03    0,000000000e+00    0,000000000e+00    0,000000000e+00    0,000000000e+00
       15768500   -9,211099148e-01    1,073623002e-01   -3,007895721e-04    1,647452242e-03    0,000000000e+00    0,000000000e+00    0,000000000e+00    0,000000000e+00
       16018000   -9,259735942e-01    1,103340462e-01   -2,589131473e-04    1,713215257e-03    0,000000000e+00    0,000000000e+00    0,000000000e+00    0,000000000e+00
       16267500   -9,307667613e-01    1,133424193e-01   -2,709295368e-04    1,706582610e-03    0,000000000e+00    0,000000000e+00    0,000000000e+00    0,000000000e+00
       16517000   -9,349932671e-01    1,157263890e-01   -2,338868362e-04    1,698354492e-03    0,000000000e+00    0,000000000e+00    0,000000000e+00    0,000000000e+00
       16766500   -9,396556020e-01    1,185294986e-01   -2,541583963e-04    1,781633357e-03    0,000000000e+00    0,000000000e+00    0,000000000e+00    0,000000000e+00
       17016000   -9,442475438e-01    1,215560585e-01   -2,759604249e-04    1,813231618e-03    0,000000000e+00    0,000000000e+00    0,000000000e+00    0,000000000e+00
       17265500   -9,485722184e-01    1,239901334e-01   -2,342882508e-04    1,896270434e-03    0,000000000e+00    0,000000000e+00    0,000000000e+00    0,000000000e+00
       17515000   -9,528410435e-01    1,262140870e-01   -2,719004697e-04    1,897228183e-03    0,000000000e+00    0,000000000e+00    0,000000000e+00    0,000000000e+00
       17764500   -9,574297667e-01    1,286856234e-01   -1,900038624e-04    1,910213032e-03    0,000000000e+00    0,000000000e+00    0,000000000e+00    0,000000000e+00
       18014000   -9,611673951e-01    1,309663504e-01   -1,425849041e-04    2,024361398e-03    0,000000000e+00    0,000000000e+00    0,000000000e+00    0,000000000e+00
       18263500   -9,642515182e-01    1,339108944e-01   -1,931479055e-04    1,987344818e-03    0,000000000e+00    0,000000000e+00    0,000000000e+00    0,000000000e+00
       18513000   -9,677777290e-01    1,363038719e-01   -2,125425090e-04    2,032585442e-03    0,000000000e+00    0,000000000e+00    0,000000000e+00    0,000000000e+00
       18762500   -9,705069661e-01    1,381529272e-01   -1,930200815e-04    1,995951403e-03    0,000000000e+00    0,000000000e+00    0,000000000e+00    0,000000000e+00
       19012000   -9,719209671e-01    1,404976249e-01   -2,152298839e-04    2,066486282e-03    0,000000000e+00    0,000000000e+00    0,000000000e+00    0,000000000e+00
       19261500   -9,748952985e-01    1,426039636e-01   -1,996653446e-04    2,114550676e-03    0,000000000e+00    0,000000000e+00    0,000000000e+00    0,000000000e+00
       19511000   -9,757685065e-01    1,447117031e-01   -1,937715715e-04    2,142009092e-03    0,000000000e+00    0,000000000e+00    0,000000000e+00    0,000000000e+00
       19760500   -9,760764837e-01    1,466662586e-01   -1,634155924e-04    2,185867401e-03    0,000000000e+00    0,000000000e+00    0,000000000e+00    0,000000000e+00
       20010000   -9,761826396e-01    1,486198008e-01   -2,475165238e-04    2,211077837e-03    0,000000000e+00    0,000000000e+00    0,000000000e+00    0,000000000e+00
       20259500   -9,758116603e-01    1,511489004e-01   -2,100089041e-04    2,208079677e-03    0,000000000e+00    0,000000000e+00    0,000000000e+00    0,000000000e+00
       20509000   -9,751421809e-01    1,524026096e-01   -1,980107481e-04    2,251661848e-03    0,000000000e+00    0,000000000e+00    0,000000000e+00    0,000000000e+00
       20758500   -9,750537872e-01    1,545938849e-01   -2,098395635e-04    2,311198972e-03    0,000000000e+00    0,000000000e+00    0,000000000e+00    0,000000000e+00
       21008000   -9,749925137e-01    1,563821137e-01   -1,681839058e-04    2,316556172e-03    0,000000000e+00    0,000000000e+00    0,000000000e+00    0,000000000e+00
       21257500   -9,741385579e-01    1,581513584e-01   -2,155108959e-04    2,328041242e-03    0,000000000e+00    0,000000000e+00    0,000000000e+00    0,000000000e+00
       21507000   -9,741604328e-01    1,598917246e-01   -1,741188753e-04    2,344239270e-03    0,000000000e+00    0,000000000e+00    0,000000000e+00    0,000000000e+00
       21756500   -9,741324186e-01    1,623451412e-01   -2,434345224e-04    2,402802464e-03    0,000000000e+00    0,000000000e+00    0,000000000e+00    0,000000000e+00
       22006000   -9,734895825e-01    1,644158661e-01   -2,384653199e-04    2,382870298e-03    0,000000000e+00    0,000000000e+00    0,000000000e+00    0,000000000e+00
       22255500   -9,727336168e-01    1,658253968e-01   -2,739362535e-04    2,442913363e-03    0,000000000e+00    0,000000000e+00    0,000000000e+00    0,000000000e+00
       22505000   -9,728577733e-01    1,675800979e-01   -2,099257690e-04    2,476276364e-03    0,000000000e+00    0,000000000e+00    0,000000000e+00    0,000000000e+00
       22754500   -9,731823802e-01    1,693867296e-01   -2,142032317e-04    2,503537806e-03    0,000000000e+00    0,000000000e+00    0,000000000e+00    0,000000000e+00
       23004000   -9,717298150e-01    1,707105041e-01   -2,210387611e-04    2,536884975e-03    0,000000000e+00    0,000000000e+00    0,000000000e+00    0,000000000e+00
       23253500   -9,711978436e-01    1,729894429e-01   -2,296839084e-04    2,594767371e-03    0,000000000e+00    0,000000000e+00    0,000000000e+00    0,000000000e+00
       23503000   -9,711403251e-01    1,748885512e-01   -2,600456646e-04    2,569120144e-03    0,000000000e+00    0,000000000e+00    0,000000000e+00    0,000000000e+00
       23752500   -9,706194997e-01    1,762465388e-01   -1,863784419e-04    2,643150976e-03    0,000000000e+00    0,000000000e+00    0,000000000e+00    0,000000000e+00
       24002000   -9,705121517e-01    1,785861254e-01   -2,145578619e-04    2,650179667e-03    0,000000000e+00    0,000000000e+00    0,000000000e+00    0,000000000e+00
       24251500   -9,698535204e-01    1,797997057e-01   -2,471847401e-04    2,681679791e-03    0,000000000e+00    0,000000000e+00    0,000000000e+00    0,000000000e+00
       24501000   -9,695940614e-01    1,819939464e-01   -2,320563071e-04    2,714618342e-03    0,000000000e+00    0,000000000e+00    0,000000000e+00    0,000000000e+00
       24750500   -9,690237641e-01    1,838675737e-01   -2,487656893e-04    2,742240671e-03    0,000000000e+00    0,000000000e+00    0,000000000e+00    0,000000000e+00
       25000000   -9,687525630e-01    1,852954030e-01   -2,195362613e-04    2,788758604e-03    0,000000000e+00    0,000000000e+00    0,000000000e+00    0,000000000e+00
