# Hz S RI R 50
!     Frequency           S11_Real           S11_Imag           S21_Real           S21_Imag           S12_Real           S12_Imag           S22_Real           S22_Imag
          50000   -9.999619126e-01   -9.604405612e-03   -1.797461664e-05    1.474515011e-05    0.000000000e+00    0.000000000e+00    0.000000000e+00    0.000000000e+00
       10049500   -9.806563258e-01    7.793936878e-02   -3.450808435e-05    1.068889163e-03    0.000000000e+00    0.000000000e+00    0.000000000e+00    0.000000000e+00
       20049000   -9.756258130e-01    1.548244357e-01   -1.189291579e-04    2.225853968e-03    0.000000000e+00    0.000000000e+00    0.000000000e+00    0.000000000e+00
       30048500   -9.575495720e-01    2.276747078e-01   -3.156867169e-04    3.370792605e-03    0.000000000e+00    0.000000000e+00    0.000000000e+00    0.000000000e+00
       40048000   -9.350304604e-01    2.982034385e-01   -3.630796273e-04    4.509498831e-03    0.000000000e+00    0.000000000e+00    0.000000000e+00    0.000000000e+00
       50047500   -9.075849056e-01    3.662332594e-01   -3.998773172e-04    5.749383010e-03    0.000000000e+00    0.000000000e+00    0.000000000e+00    0.000000000e+00
       60047000   -8.752079606e-01    4.323741794e-01   -4.383946070e-04    6.990488619e-03    0.000000000e+00    0.000000000e+00    0.000000000e+00    0.000000000e+00
       70046500   -8.375281692e-01    4.956915975e-01   -3.181541106e-04    8.340831846e-03    0.000000000e+00    0.000000000e+00    0.000000000e+00    0.000000000e+00
       80046000   -7.964228392e-01    5.558878779e-01   -1.578209485e-04    9.726199321e-03    0.000000000e+00    0.000000000e+00    0.000000000e+00    0.000000000e+00
       90045500   -7.478058934e-01    6.143782139e-01    1.422429050e-04    1.105928328e-02    0.000000000e+00    0.000000000e+00    0.000000000e+00    0.000000000e+00
      100045000   -7.014110088e-01    6.716231704e-01    6.797667593e-04    1.276930794e-02    0.000000000e+00    0.000000000e+00    0.000000000e+00    0.000000000e+00
      110044500   -6.476805806e-01    7.213596702e-01    1.411266159e-03    1.404528134e-02    0.000000000e+00    0.000000000e+00    0.000000000e+00    0.000000000e+00
      120044000   -5.898583531e-01    7.675914764e-01    2.151302295e-03    1.507416833e-02    0.000000000e+00    0.000000000e+00    0.000000000e+00    0.000000000e+00
      130043500   -5.293616652e-01    8.094566464e-01    2.879347652e-03    1.605648734e-02    0.000000000e+00    0.000000000e+00    0.000000000e+00    0.000000000e+00
      140043000   -4.650591016e-01    8.466804028e-01    3.526752815e-03    1.688432507e-02    0.000000000e+00    0.000000000e+00    0.000000000e+00    0.000000000e+00
      150042500   -3.984712660e-01    8.788787723e-01    4.130231217e-03    1.766338572e-02    0.000000000e+00    0.000000000e+00    0.000000000e+00    0.000000000e+00
      160042000   -3.282504976e-01    9.047192931e-01    4.644202068e-03    1.845113561e-02    0.000000000e+00    0.000000000e+00    0.000000000e+00    0.000000000e+00
      170041500   -2.565000653e-01    9.249753952e-01    5.062586628e-03    1.922828145e-02    0.000000000e+00    0.000000000e+00    0.000000000e+00    0.000000000e+00
      180041000   -1.838735938e-01    9.393685460e-01    5.359173752e-03    2.013008669e-02    0.000000000e+00    0.000000000e+00    0.000000000e+00    0.000000000e+00
      190040500   -1.105870977e-01    9.482556581e-01    5.713213235e-03    2.116500773e-02    0.000000000e+00    0.000000000e+00    0.000000000e+00    0.000000000e+00
      200040000   -3.462095559e-02    9.508237243e-01    6.124393083e-03    2.228159457e-02    0.000000000e+00    0.000000000e+00    0.000000000e+00    0.000000000e+00
      210039500    4.249677807e-02    9.414681196e-01    6.568444893e-03    2.325044759e-02    0.000000000e+00    0.000000000e+00    0.000000000e+00    0.000000000e+00
      220039000    9.990978241e-02    9.219534397e-01    6.507576443e-03    2.444792539e-02    0.000000000e+00    0.000000000e+00    0.000000000e+00    0.000000000e+00
      230038500    1.620971709e-01    9.228646159e-01    6.863728631e-03    2.637675218e-02    0.000000000e+00    0.000000000e+00    0.000000000e+00    0.000000000e+00
      240038000    2.365424782e-01    9.130301476e-01    7.825436071e-03    2.828675695e-02    0.000000000e+00    0.000000000e+00    0.000000000e+00    0.000000000e+00
      250037500    3.103684783e-01    8.924311996e-01    8.998516016e-03    3.011012636e-02    0.000000000e+00    0.000000000e+00    0.000000000e+00    0.000000000e+00
      260037000    3.809070885e-01    8.647257686e-01    1.030516159e-02    3.171652555e-02    0.000000000e+00    0.000000000e+00    0.000000000e+00    0.000000000e+00
      270036500    4.479833841e-01    8.300086856e-01    1.192798559e-02    3.332730010e-02    0.000000000e+00    0.000000000e+00    0.000000000e+00    0.000000000e+00
      280036000    5.129442811e-01    7.902938724e-01    1.386475656e-02    3.478998691e-02    0.000000000e+00    0.000000000e+00    0.000000000e+00    0.000000000e+00
      290035500    5.734397173e-01    7.453225851e-01    1.590475067e-02    3.603436053e-02    0.000000000e+00    0.000000000e+00    0.000000000e+00    0.000000000e+00
      300035000    6.301992536e-01    6.948538423e-01    1.813147776e-02    3.698724508e-02    0.000000000e+00    0.000000000e+00    0.000000000e+00    0.000000000e+00
      310034500    6.826657653e-01    6.407875419e-01    2.033481561e-02    3.763641044e-02    0.000000000e+00    0.000000000e+00    0.000000000e+00    0.000000000e+00
      320034000    7.304345369e-01    5.819123983e-01    2.251699381e-02    3.797327355e-02    0.000000000e+00    0.000000000e+00    0.000000000e+00    0.000000000e+00
      330033500    7.728604078e-01    5.206549764e-01    2.446583845e-02    3.820643201e-02    0.000000000e+00    0.000000000e+00    0.000000000e+00    0.000000000e+00
      340033000    8.089857101e-01    4.538629055e-01    2.633705921e-02    3.824102134e-02    0.000000000e+00    0.000000000e+00    0.000000000e+00    0.000000000e+00
      350032500    8.393081427e-01    3.906265497e-01    2.791019157e-02    3.843130171e-02    0.000000000e+00    0.000000000e+00    0.000000000e+00    0.000000000e+00
      360032000    8.697097301e-01    3.212883472e-01    2.959769033e-02    3.859544545e-02    0.000000000e+00    0.000000000e+00    0.000000000e+00    0.000000000e+00
      370031500    8.917382360e-01    2.476826012e-01    3.117404319e-02    3.883554414e-02    0.000000000e+00    0.000000000e+00    0.000000000e+00    0.000000000e+00
      380031000    9.074248672e-01    1.732211262e-01    3.274159506e-02    3.912960738e-02    0.000000000e+00    0.000000000e+00    0.000000000e+00    0.000000000e+00
      390030500    9.145315289e-01    9.708777070e-02    3.430076316e-02    3.934067488e-02    0.000000000e+00    0.000000000e+00    0.000000000e+00    0.000000000e+00
      400030000    9.155469537e-01    2.311292291e-02    3.597161174e-02    3.977385908e-02    0.000000000e+00    0.000000000e+00    0.000000000e+00    0.000000000e+00
      410029500    9.097908139e-01   -5.056755990e-02    3.781559691e-02    4.016856849e-02    0.000000000e+00    0.000000000e+00    0.000000000e+00    0.000000000e+00
      420029000    8.991580009e-01   -1.218407825e-01    3.985762596e-02    4.056799412e-02    0.000000000e+00    0.000000000e+00    0.000000000e+00    0.000000000e+00
      430028500    8.824976683e-01   -1.911766827e-01    4.213767126e-02    4.088382795e-02    0.000000000e+00    0.000000000e+00    0.000000000e+00    0.000000000e+00
      440028000    8.613698483e-01   -2.590619326e-01    4.466006532e-02    4.074099287e-02    0.000000000e+00    0.000000000e+00    0.000000000e+00    0.000000000e+00
      450027500    8.347658515e-01   -3.198064268e-01    4.655078426e-02    4.034564644e-02    0.000000000e+00    0.000000000e+00    0.000000000e+00    0.000000000e+00
      460027000    8.098515868e-01   -3.809135854e-01    4.853678122e-02    4.060707986e-02    0.000000000e+00    0.000000000e+00    0.000000000e+00    0.000000000e+00
      470026500    7.818410397e-01   -4.424937367e-01    5.128871650e-02    4.064530507e-02    0.000000000e+00    0.000000000e+00    0.000000000e+00    0.000000000e+00
      480026000    7.467196584e-01   -5.047863722e-01    5.401908606e-02    4.024111480e-02    0.000000000e+00    0.000000000e+00    0.000000000e+00    0.000000000e+00
      490025500    7.048965693e-01   -5.650570989e-01    5.691001937e-02    3.940077499e-02    0.000000000e+00    0.000000000e+00    0.000000000e+00    0.000000000e+00
      500025000    6.570132375e-01   -6.196803451e-01    5.946946144e-02    3.816872835e-02    0.000000000e+00    0.000000000e+00    0.000000000e+00    0.000000000e+00
      510024500    6.067073941e-01   -6.718014479e-01    6.192707270e-02    3.686306253e-02    0.000000000e+00    0.000000000e+00    0.000000000e+00    0.000000000e+00
      520024000    5.492265821e-01   -7.185325623e-01    6.409958750e-02    3.549862280e-02    0.000000000e+00    0.000000000e+00    0.000000000e+00    0.000000000e+00
      530023500    4.873927236e-01   -7.591546774e-01    6.598170847e-02    3.384893760e-02    0.000000000e+00    0.000000000e+00    0.000000000e+00    0.000000000e+00
      540023000    4.240857959e-01   -7.948326468e-01    6.771310419e-02    3.261146694e-02    0.000000000e+00    0.000000000e+00    0.000000000e+00    0.000000000e+00
      550022500    3.575300276e-01   -8.257427216e-01    6.953184307e-02    3.129399568e-02    0.000000000e+00    0.000000000e+00    0.000000000e+00    0.000000000e+00
      560022000    2.896071970e-01   -8.491996527e-01    7.119864225e-02    3.016800061e-02    0.000000000e+00    0.000000000e+00    0.000000000e+00    0.000000000e+00
      570021500    2.214508951e-01   -8.651667237e-01    7.293859869e-02    2.910543419e-02    0.000000000e+00    0.000000000e+00    0.000000000e+00    0.000000000e+00
      580021000    1.537376940e-01   -8.785968423e-01    7.493147999e-02    2.801297233e-02    0.000000000e+00    0.000000000e+00    0.000000000e+00    0.000000000e+00
      590020500    8.355399221e-02   -8.886986971e-01    7.732213289e-02    2.669240907e-02    0.000000000e+00    0.000000000e+00    0.000000000e+00    0.000000000e+00
      600020000    1.272170525e-02   -8.915795088e-01    7.978305221e-02    2.521255799e-02    0.000000000e+00    0.000000000e+00    0.000000000e+00    0.000000000e+00
      610019500   -5.982322991e-02   -8.878216743e-01    8.228840679e-02    2.320211940e-02    0.000000000e+00    0.000000000e+00    0.000000000e+00    0.000000000e+00
      620019000   -1.309689879e-01   -8.779174089e-01    8.460183442e-02    2.087887935e-02    0.000000000e+00    0.000000000e+00    0.000000000e+00    0.000000000e+00
      630018500   -2.035987973e-01   -8.635908961e-01    8.694896102e-02    1.794914529e-02    0.000000000e+00    0.000000000e+00    0.000000000e+00    0.000000000e+00
      640018000   -2.749650180e-01   -8.395106196e-01    8.881521225e-02    1.459657867e-02    0.000000000e+00    0.000000000e+00    0.000000000e+00    0.000000000e+00
      650017500   -3.418187797e-01   -8.085067868e-01    9.013377875e-02    1.108829491e-02    0.000000000e+00    0.000000000e+00    0.000000000e+00    0.000000000e+00
      660017000   -4.048978388e-01   -7.713962793e-01    9.072917700e-02    7.552063558e-03    0.000000000e+00    0.000000000e+00    0.000000000e+00    0.000000000e+00
      670016500   -4.628955722e-01   -7.284395695e-01    9.081681073e-02    4.198945593e-03    0.000000000e+00    0.000000000e+00    0.000000000e+00    0.000000000e+00
      680016000   -5.158677101e-01   -6.805948615e-01    9.058519453e-02    1.264053746e-03    0.000000000e+00    0.000000000e+00    0.000000000e+00    0.000000000e+00
      690015500   -5.579811335e-01   -6.325867176e-01    8.997491002e-02   -9.997161105e-04    0.000000000e+00    0.000000000e+00    0.000000000e+00    0.000000000e+00
      700015000   -5.993015766e-01   -5.826517344e-01    8.943308890e-02   -3.004750237e-03    0.000000000e+00    0.000000000e+00    0.000000000e+00    0.000000000e+00
      710014500   -6.363060474e-01   -5.313881040e-01    8.895348758e-02   -4.412719514e-03    0.000000000e+00    0.000000000e+00    0.000000000e+00    0.000000000e+00
      720014000   -6.668927670e-01   -4.752244055e-01    8.863117546e-02   -5.672832951e-03    0.000000000e+00    0.000000000e+00    0.000000000e+00    0.000000000e+00
      730013500   -6.890144944e-01   -4.203361571e-01    8.869414032e-02   -6.556330714e-03    0.000000000e+00    0.000000000e+00    0.000000000e+00    0.000000000e+00
      740013000   -7.086481452e-01   -3.686103225e-01    8.903440088e-02   -7.538218517e-03    0.000000000e+00    0.000000000e+00    0.000000000e+00    0.000000000e+00
      750012500   -7.288465500e-01   -3.219639957e-01    9.013964236e-02   -8.189605549e-03    0.000000000e+00    0.000000000e+00    0.000000000e+00    0.000000000e+00
      760012000   -7.497870326e-01   -2.719298303e-01    9.138427675e-02   -9.458898567e-03    0.000000000e+00    0.000000000e+00    0.000000000e+00    0.000000000e+00
      770011500   -7.756808996e-01   -2.183070034e-01    9.293085337e-02   -1.114386506e-02    0.000000000e+00    0.000000000e+00    0.000000000e+00    0.000000000e+00
      780011000   -7.968868613e-01   -1.558001786e-01    9.427025914e-02   -1.327959914e-02    0.000000000e+00    0.000000000e+00    0.000000000e+00    0.000000000e+00
      790010500   -8.167179227e-01   -8.112011105e-02    9.551851451e-02   -1.609849744e-02    0.000000000e+00    0.000000000e+00    0.000000000e+00    0.000000000e+00
      800010000   -8.198194504e-01    6.396431709e-04    9.631265700e-02   -1.904444955e-02    0.000000000e+00    0.000000000e+00    0.000000000e+00    0.000000000e+00
      810009500   -8.086357117e-01    7.986095548e-02    9.685908258e-02   -2.226093970e-02    0.000000000e+00    0.000000000e+00    0.000000000e+00    0.000000000e+00
      820009000   -7.911601067e-01    1.631781608e-01    9.665559232e-02   -2.611914091e-02    0.000000000e+00    0.000000000e+00    0.000000000e+00    0.000000000e+00
      830008500   -7.548123002e-01    2.439752966e-01    9.534116089e-02   -2.973949537e-02    0.000000000e+00    0.000000000e+00    0.000000000e+00    0.000000000e+00
      840008000   -7.027339935e-01    3.165736198e-01    9.280133992e-02   -3.236564621e-02    0.000000000e+00    0.000000000e+00    0.000000000e+00    0.000000000e+00
      850007500   -6.382138729e-01    3.717450202e-01    9.030994028e-02   -3.297267854e-02    0.000000000e+00    0.000000000e+00    0.000000000e+00    0.000000000e+00
      860007000   -5.745943189e-01    4.124177396e-01    8.924004436e-02   -3.289281204e-02    0.000000000e+00    0.000000000e+00    0.000000000e+00    0.000000000e+00
      870006500   -5.106301308e-01    4.432841241e-01    8.933387697e-02   -3.289934620e-02    0.000000000e+00    0.000000000e+00    0.000000000e+00    0.000000000e+00
      880006000   -4.427444637e-01    4.627594054e-01    8.969756961e-02   -3.288278729e-02    0.000000000e+00    0.000000000e+00    0.000000000e+00    0.000000000e+00
      890005500   -3.797695935e-01    4.727382958e-01    9.064289927e-02   -3.346610442e-02    0.000000000e+00    0.000000000e+00    0.000000000e+00    0.000000000e+00
      900005000   -3.146258295e-01    4.758602977e-01    9.163148701e-02   -3.460379317e-02    0.000000000e+00    0.000000000e+00    0.000000000e+00    0.000000000e+00
      910004500   -2.479371876e-01    4.607566595e-01    9.261330962e-02   -3.555543721e-02    0.000000000e+00    0.000000000e+00    0.000000000e+00    0.000000000e+00
      920004000   -1.927286685e-01    4.263292551e-01    9.385691583e-02   -3.683695570e-02    0.000000000e+00    0.000000000e+00    0.000000000e+00    0.000000000e+00
      930003500   -1.637559384e-01    3.784660995e-01    9.559909999e-02   -3.839101270e-02    0.000000000e+00    0.000000000e+00    0.000000000e+00    0.000000000e+00
      940003000   -1.474362016e-01    3.376927078e-01    9.713947028e-02   -4.084797204e-02    0.000000000e+00    0.000000000e+00    0.000000000e+00    0.000000000e+00
      950002500   -1.458479166e-01    3.027040362e-01    9.843268991e-02   -4.378882796e-02    0.000000000e+00    0.000000000e+00    0.000000000e+00    0.000000000e+00
      960002000   -1.562901139e-01    2.780840993e-01    9.908875078e-02   -4.715112969e-02    0.000000000e+00    0.000000000e+00    0.000000000e+00    0.000000000e+00
      970001500   -1.719763428e-01    2.642112970e-01    9.962195158e-02   -5.007100850e-02    0.000000000e+00    0.000000000e+00    0.000000000e+00    0.000000000e+00
      980001000   -1.899883002e-01    2.607649863e-01    9.946388751e-02   -5.329567567e-02    0.000000000e+00    0.000000000e+00    0.000000000e+00    0.000000000e+00
      990000500   -2.070823908e-01    2.686264217e-01    9.922137111e-02   -5.624078214e-02    0.000000000e+00    0.000000000e+00    0.000000000e+00    0.000000000e+00
     1000000000   -1.521471441e-01    3.221473098e-01    8.790075034e-02   -7.411370426e-02    0.000000000e+00    0.000000000e+00    0.000000000e+00    0.000000000e+00
