# Hz S RI R 50
!     Frequency           S11_Real           S11_Imag           S21_Real           S21_Imag           S12_Real           S12_Imag           S22_Real           S22_Imag
          50000   -1.011094689e+00   -2.499798127e-02    3.663974155e-07    1.288268777e-05    0.000000000e+00    0.000000000e+00    0.000000000e+00    0.000000000e+00
       10049500   -9.796613455e-01    7.214364409e-02   -7.906954124e-05    1.112772152e-03    0.000000000e+00    0.000000000e+00    0.000000000e+00    0.000000000e+00
       20049000   -9.760853052e-01    1.491293013e-01   -1.815069700e-04    2.178750467e-03    0.000000000e+00    0.000000000e+00    0.000000000e+00    0.000000000e+00
       30048500   -9.592340589e-01    2.209634185e-01   -3.099548921e-04    3.357610665e-03    0.000000000e+00    0.000000000e+00    0.000000000e+00    0.000000000e+00
       40048000   -9.367288947e-01    2.906824052e-01   -4.086958652e-04    4.513855558e-03    0.000000000e+00    0.000000000e+00    0.000000000e+00    0.000000000e+00
       50047500   -9.106374979e-01    3.571942449e-01   -3.840579011e-04    5.753650796e-03    0.000000000e+00    0.000000000e+00    0.000000000e+00    0.000000000e+00
       60047000   -8.794527650e-01    4.213856459e-01   -4.165757855e-04    7.081524003e-03    0.000000000e+00    0.000000000e+00    0.000000000e+00    0.000000000e+00
       70046500   -8.435753584e-01    4.840575457e-01   -3.347904130e-04    8.391637355e-03    0.000000000e+00    0.000000000e+00    0.000000000e+00    0.000000000e+00
       80046000   -8.027278185e-01    5.432494283e-01   -1.360984315e-04    9.690620005e-03    0.000000000e+00    0.000000000e+00    0.000000000e+00    0.000000000e+00
       90045500   -7.562506795e-01    6.017861366e-01    1.487774716e-04    1.102267206e-02    0.000000000e+00    0.000000000e+00    0.000000000e+00    0.000000000e+00
      100045000   -7.111012340e-01    6.578404307e-01    6.811336498e-04    1.280411053e-02    0.000000000e+00    0.000000000e+00    0.000000000e+00    0.000000000e+00
      110044500   -6.593784094e-01    7.069340944e-01    1.368063735e-03    1.402716897e-02    0.000000000e+00    0.000000000e+00    0.000000000e+00    0.000000000e+00
      120044000   -6.033815145e-01    7.535907626e-01    2.109691733e-03    1.513029542e-02    0.000000000e+00    0.000000000e+00    0.000000000e+00    0.000000000e+00
      130043500   -5.450649261e-01    7.957367897e-01    2.878043335e-03    1.606050320e-02    0.000000000e+00    0.000000000e+00    0.000000000e+00    0.000000000e+00
      140043000   -4.826943278e-01    8.335413337e-01    3.569072345e-03    1.690598391e-02    0.000000000e+00    0.000000000e+00    0.000000000e+00    0.000000000e+00
      150042500   -4.177805483e-01    8.670017719e-01    4.179633688e-03    1.771592908e-02    0.000000000e+00    0.000000000e+00    0.000000000e+00    0.000000000e+00
      160042000   -3.497622013e-01    8.934963942e-01    4.735830240e-03    1.849828288e-02    0.000000000e+00    0.000000000e+00    0.000000000e+00    0.000000000e+00
      170041500   -2.798318863e-01    9.153127074e-01    5.161555484e-03    1.924642175e-02    0.000000000e+00    0.000000000e+00    0.000000000e+00    0.000000000e+00
      180041000   -2.082059085e-01    9.282082915e-01    5.540469661e-03    1.999446936e-02    0.000000000e+00    0.000000000e+00    0.000000000e+00    0.000000000e+00
      190040500   -1.415988505e-01    9.379436374e-01    5.619855598e-03    2.104963362e-02    0.000000000e+00    0.000000000e+00    0.000000000e+00    0.000000000e+00
      200040000   -7.243980467e-02    9.434764385e-01    5.883702543e-03    2.216291055e-02    0.000000000e+00    0.000000000e+00    0.000000000e+00    0.000000000e+00
      210039500   -2.648124471e-03    9.458113909e-01    6.180814933e-03    2.350718901e-02    0.000000000e+00    0.000000000e+00    0.000000000e+00    0.000000000e+00
      220039000    6.884767115e-02    9.429708719e-01    6.680825260e-03    2.498626895e-02    0.000000000e+00    0.000000000e+00    0.000000000e+00    0.000000000e+00
      230038500    1.411015391e-01    9.338838458e-01    7.265149150e-03    2.655979805e-02    0.000000000e+00    0.000000000e+00    0.000000000e+00    0.000000000e+00
      240038000    2.135462016e-01    9.196259379e-01    8.146497421e-03    2.823537961e-02    0.000000000e+00    0.000000000e+00    0.000000000e+00    0.000000000e+00
      250037500    2.840452194e-01    8.979700208e-01    9.211496450e-03    2.992419899e-02    0.000000000e+00    0.000000000e+00    0.000000000e+00    0.000000000e+00
      260037000    3.527486622e-01    8.716496229e-01    1.046985388e-02    3.158787265e-02    0.000000000e+00    0.000000000e+00    0.000000000e+00    0.000000000e+00
      270036500    4.193907082e-01    8.380512595e-01    1.205065195e-02    3.319378197e-02    0.000000000e+00    0.000000000e+00    0.000000000e+00    0.000000000e+00
      280036000    4.835051596e-01    8.002346158e-01    1.386563480e-02    3.460869193e-02    0.000000000e+00    0.000000000e+00    0.000000000e+00    0.000000000e+00
      290035500    5.440795422e-01    7.560463548e-01    1.596335135e-02    3.585986048e-02    0.000000000e+00    0.000000000e+00    0.000000000e+00    0.000000000e+00
      300035000    6.008335948e-01    7.089858651e-01    1.808746904e-02    3.678285703e-02    0.000000000e+00    0.000000000e+00    0.000000000e+00    0.000000000e+00
      310034500    6.529704332e-01    6.569423079e-01    2.021794394e-02    3.747773543e-02    0.000000000e+00    0.000000000e+00    0.000000000e+00    0.000000000e+00
      320034000    7.029647827e-01    6.006501913e-01    2.239572629e-02    3.791991621e-02    0.000000000e+00    0.000000000e+00    0.000000000e+00    0.000000000e+00
      330033500    7.475786209e-01    5.414516926e-01    2.430871874e-02    3.816773742e-02    0.000000000e+00    0.000000000e+00    0.000000000e+00    0.000000000e+00
      340033000    7.884643078e-01    4.769777358e-01    2.619336918e-02    3.833271936e-02    0.000000000e+00    0.000000000e+00    0.000000000e+00    0.000000000e+00
      350032500    8.208128810e-01    4.086908698e-01    2.792352065e-02    3.842717409e-02    0.000000000e+00    0.000000000e+00    0.000000000e+00    0.000000000e+00
      360032000    8.484211564e-01    3.399887979e-01    2.947888523e-02    3.859062865e-02    0.000000000e+00    0.000000000e+00    0.000000000e+00    0.000000000e+00
      370031500    8.706935048e-01    2.691044807e-01    3.105231002e-02    3.879335523e-02    0.000000000e+00    0.000000000e+00    0.000000000e+00    0.000000000e+00
      380031000    8.894307017e-01    1.983510703e-01    3.258116543e-02    3.923688456e-02    0.000000000e+00    0.000000000e+00    0.000000000e+00    0.000000000e+00
      390030500    9.005796909e-01    1.251582205e-01    3.423951939e-02    3.963277489e-02    0.000000000e+00    0.000000000e+00    0.000000000e+00    0.000000000e+00
      400030000    9.069182873e-01    4.998239130e-02    3.605328873e-02    4.016120732e-02    0.000000000e+00    0.000000000e+00    0.000000000e+00    0.000000000e+00
      410029500    9.068843126e-01   -2.626524307e-02    3.814966232e-02    4.056693614e-02    0.000000000e+00    0.000000000e+00    0.000000000e+00    0.000000000e+00
      420029000    8.976143599e-01   -1.027704850e-01    4.043617100e-02    4.065565020e-02    0.000000000e+00    0.000000000e+00    0.000000000e+00    0.000000000e+00
      430028500    8.803992271e-01   -1.764810681e-01    4.263996705e-02    4.030927643e-02    0.000000000e+00    0.000000000e+00    0.000000000e+00    0.000000000e+00
      440028000    8.591102362e-01   -2.442231774e-01    4.429065809e-02    4.042878002e-02    0.000000000e+00    0.000000000e+00    0.000000000e+00    0.000000000e+00
      450027500    8.319225311e-01   -3.103758395e-01    4.636611417e-02    4.059745371e-02    0.000000000e+00    0.000000000e+00    0.000000000e+00    0.000000000e+00
      460027000    8.041758537e-01   -3.714445531e-01    4.875713214e-02    4.075721279e-02    0.000000000e+00    0.000000000e+00    0.000000000e+00    0.000000000e+00
      470026500    7.719931006e-01   -4.333036542e-01    5.148975551e-02    4.061434418e-02    0.000000000e+00    0.000000000e+00    0.000000000e+00    0.000000000e+00
      480026000    7.385149598e-01   -4.945548773e-01    5.426236242e-02    4.021220282e-02    0.000000000e+00    0.000000000e+00    0.000000000e+00    0.000000000e+00
      490025500    6.957160830e-01   -5.575352907e-01    5.721307173e-02    3.927162290e-02    0.000000000e+00    0.000000000e+00    0.000000000e+00    0.000000000e+00
      500025000    6.455692649e-01   -6.144037247e-01    5.977737904e-02    3.794207796e-02    0.000000000e+00    0.000000000e+00    0.000000000e+00    0.000000000e+00
      510024500    5.913355350e-01   -6.685457230e-01    6.223452836e-02    3.653724119e-02    0.000000000e+00    0.000000000e+00    0.000000000e+00    0.000000000e+00
      520024000    5.289162993e-01   -7.165572643e-01    6.435623020e-02    3.488117829e-02    0.000000000e+00    0.000000000e+00    0.000000000e+00    0.000000000e+00
      530023500    4.604828060e-01   -7.571092248e-01    6.607371569e-02    3.313894570e-02    0.000000000e+00    0.000000000e+00    0.000000000e+00    0.000000000e+00
      540023000    3.904622793e-01   -7.875796556e-01    6.739865988e-02    3.162723780e-02    0.000000000e+00    0.000000000e+00    0.000000000e+00    0.000000000e+00
      550022500    3.222235143e-01   -8.096132278e-01    6.879160553e-02    3.057411499e-02    0.000000000e+00    0.000000000e+00    0.000000000e+00    0.000000000e+00
      560022000    2.535574138e-01   -8.279229403e-01    7.032497972e-02    2.961815335e-02    0.000000000e+00    0.000000000e+00    0.000000000e+00    0.000000000e+00
      570021500    1.895066500e-01   -8.395862579e-01    7.190672308e-02    2.891828120e-02    0.000000000e+00    0.000000000e+00    0.000000000e+00    0.000000000e+00
      580021000    1.257440746e-01   -8.509149551e-01    7.384591550e-02    2.809896693e-02    0.000000000e+00    0.000000000e+00    0.000000000e+00    0.000000000e+00
      590020500    5.911812186e-02   -8.626955152e-01    7.641833276e-02    2.719061263e-02    0.000000000e+00    0.000000000e+00    0.000000000e+00    0.000000000e+00
      600020000   -1.330178231e-02   -8.681277037e-01    7.903532684e-02    2.568007447e-02    0.000000000e+00    0.000000000e+00    0.000000000e+00    0.000000000e+00
      610019500   -8.439166844e-02   -8.663181663e-01    8.166067302e-02    2.394068614e-02    0.000000000e+00    0.000000000e+00    0.000000000e+00    0.000000000e+00
      620019000   -1.578379273e-01   -8.595075011e-01    8.440481871e-02    2.160544321e-02    0.000000000e+00    0.000000000e+00    0.000000000e+00    0.000000000e+00
      630018500   -2.337532490e-01   -8.452994227e-01    8.679938316e-02    1.866469532e-02    0.000000000e+00    0.000000000e+00    0.000000000e+00    0.000000000e+00
      640018000   -3.084732294e-01   -8.232603073e-01    8.893495053e-02    1.539826300e-02    0.000000000e+00    0.000000000e+00    0.000000000e+00    0.000000000e+00
      650017500   -3.805010021e-01   -7.894321084e-01    9.023126215e-02    1.172785833e-02    0.000000000e+00    0.000000000e+00    0.000000000e+00    0.000000000e+00
      660017000   -4.487484396e-01   -7.496988773e-01    9.094373882e-02    8.018918335e-03    0.000000000e+00    0.000000000e+00    0.000000000e+00    0.000000000e+00
      670016500   -5.109695196e-01   -7.046337724e-01    9.116163850e-02    4.646150395e-03    0.000000000e+00    0.000000000e+00    0.000000000e+00    0.000000000e+00
      680016000   -5.687811375e-01   -6.529756784e-01    9.096319228e-02    1.557176816e-03    0.000000000e+00    0.000000000e+00    0.000000000e+00    0.000000000e+00
      690015500   -6.180923581e-01   -5.985020995e-01    9.042779356e-02   -9.456499247e-04    0.000000000e+00    0.000000000e+00    0.000000000e+00    0.000000000e+00
      700015000   -6.657691598e-01   -5.428515077e-01    8.999157697e-02   -3.077533329e-03    0.000000000e+00    0.000000000e+00    0.000000000e+00    0.000000000e+00
      710014500   -7.106745839e-01   -4.843563735e-01    8.953987807e-02   -4.766534083e-03    0.000000000e+00    0.000000000e+00    0.000000000e+00    0.000000000e+00
      720014000   -7.496119738e-01   -4.191357195e-01    8.917340636e-02   -6.187600549e-03    0.000000000e+00    0.000000000e+00    0.000000000e+00    0.000000000e+00
      730013500   -7.873554230e-01   -3.445230424e-01    8.894555271e-02   -7.527233567e-03    0.000000000e+00    0.000000000e+00    0.000000000e+00    0.000000000e+00
      740013000   -8.148809671e-01   -2.666317821e-01    8.898207545e-02   -8.606430143e-03    0.000000000e+00    0.000000000e+00    0.000000000e+00    0.000000000e+00
      750012500   -8.349739313e-01   -1.831337363e-01    8.947333694e-02   -9.552663192e-03    0.000000000e+00    0.000000000e+00    0.000000000e+00    0.000000000e+00
      760012000   -8.427765369e-01   -9.389772266e-02    9.016024321e-02   -1.073498745e-02    0.000000000e+00    0.000000000e+00    0.000000000e+00    0.000000000e+00
      770011500   -8.396790624e-01   -7.565672975e-03    9.123001248e-02   -1.200722437e-02    0.000000000e+00    0.000000000e+00    0.000000000e+00    0.000000000e+00
      780011000   -8.251291513e-01    7.764063030e-02    9.233801067e-02   -1.406570990e-02    0.000000000e+00    0.000000000e+00    0.000000000e+00    0.000000000e+00
      790010500   -8.034299612e-01    1.618003100e-01    9.331566840e-02   -1.666553319e-02    0.000000000e+00    0.000000000e+00    0.000000000e+00    0.000000000e+00
      800010000   -7.744656205e-01    2.440809011e-01    9.382868558e-02   -1.963192411e-02    0.000000000e+00    0.000000000e+00    0.000000000e+00    0.000000000e+00
      810009500   -7.301644087e-01    3.299604654e-01    9.320216626e-02   -2.276953310e-02    0.000000000e+00    0.000000000e+00    0.000000000e+00    0.000000000e+00
      820009000   -6.700558066e-01    4.034925997e-01    9.170322120e-02   -2.521285787e-02    0.000000000e+00    0.000000000e+00    0.000000000e+00    0.000000000e+00
      830008500   -5.983062387e-01    4.674300551e-01    9.024621546e-02   -2.647670358e-02    0.000000000e+00    0.000000000e+00    0.000000000e+00    0.000000000e+00
      840008000   -5.173407793e-01    5.155630112e-01    8.928337693e-02   -2.708151564e-02    0.000000000e+00    0.000000000e+00    0.000000000e+00    0.000000000e+00
      850007500   -4.312727153e-01    5.488117337e-01    8.900576085e-02   -2.741597220e-02    0.000000000e+00    0.000000000e+00    0.000000000e+00    0.000000000e+00
      860007000   -3.409164548e-01    5.638160706e-01    8.867403120e-02   -2.803933807e-02    0.000000000e+00    0.000000000e+00    0.000000000e+00    0.000000000e+00
      870006500   -2.596793473e-01    5.612215400e-01    8.908534050e-02   -2.801468223e-02    0.000000000e+00    0.000000000e+00    0.000000000e+00    0.000000000e+00
      880006000   -1.797478050e-01    5.505812168e-01    8.989265561e-02   -2.834662423e-02    0.000000000e+00    0.000000000e+00    0.000000000e+00    0.000000000e+00
      890005500   -1.033957377e-01    5.203540325e-01    9.079710394e-02   -2.860711515e-02    0.000000000e+00    0.000000000e+00    0.000000000e+00    0.000000000e+00
      900005000   -4.312083498e-02    4.764483571e-01    9.263826162e-02   -2.868765406e-02    0.000000000e+00    0.000000000e+00    0.000000000e+00    0.000000000e+00
      910004500   -2.951818053e-03    4.244654477e-01    9.508041292e-02   -2.984043583e-02    0.000000000e+00    0.000000000e+00    0.000000000e+00    0.000000000e+00
      920004000    3.182326257e-02    3.707429767e-01    9.732360393e-02   -3.146449104e-02    0.000000000e+00    0.000000000e+00    0.000000000e+00    0.000000000e+00
      930003500    5.160265043e-02    3.158191144e-01    9.968162328e-02   -3.398166224e-02    0.000000000e+00    0.000000000e+00    0.000000000e+00    0.000000000e+00
      940003000    5.595057085e-02    2.637298405e-01    1.018421724e-01   -3.707186878e-02    0.000000000e+00    0.000000000e+00    0.000000000e+00    0.000000000e+00
      950002500    4.763641953e-02    2.185827196e-01    1.035597175e-01   -4.059343413e-02    0.000000000e+00    0.000000000e+00    0.000000000e+00    0.000000000e+00
      960002000    3.035016917e-02    1.816316843e-01    1.045280173e-01   -4.487857223e-02    0.000000000e+00    0.000000000e+00    0.000000000e+00    0.000000000e+00
      970001500    5.567544140e-03    1.560495645e-01    1.050812155e-01   -4.875777662e-02    0.000000000e+00    0.000000000e+00    0.000000000e+00    0.000000000e+00
      980001000   -2.260173112e-02    1.415238529e-01    1.048668846e-01   -5.292082205e-02    0.000000000e+00    0.000000000e+00    0.000000000e+00    0.000000000e+00
      990000500   -5.080485716e-02    1.389974654e-01    1.044047400e-01   -5.590862408e-02    0.000000000e+00    0.000000000e+00    0.000000000e+00    0.000000000e+00
     1000000000   -3.905216977e-02    1.575854421e-01    9.232250601e-02   -7.571549714e-02    0.000000000e+00    0.000000000e+00    0.000000000e+00    0.000000000e+00
