! NanoVNA-App
! Date: 2025-01-28 12:16:54
! Start: 50kHz Stop: 5GHz Points: 101
! S-Parameter data: F S11 S21 S12 S22
# Hz S RI R 50
!     Frequency           S11_Real           S11_Imag           S21_Real           S21_Imag           S12_Real           S12_Imag           S22_Real           S22_Imag
          50000   -1,010709405e+00   -2,494082227e-02   -2,605196187e-06   -1,408047751e-06    0,000000000e+00    0,000000000e+00    0,000000000e+00    0,000000000e+00
       50049500   -9,105551243e-01    3,573073149e-01   -4,304424801e-04    5,782732274e-03    0,000000000e+00    0,000000000e+00    0,000000000e+00    0,000000000e+00
      100049000   -7,106984854e-01    6,578286290e-01    6,803995348e-04    1,274942886e-02    0,000000000e+00    0,000000000e+00    0,000000000e+00    0,000000000e+00
      150048500   -4,177496731e-01    8,667536974e-01    4,197312519e-03    1,770005189e-02    0,000000000e+00    0,000000000e+00    0,000000000e+00    0,000000000e+00
      200048000   -7,244654745e-02    9,434070587e-01    5,860420410e-03    2,219072357e-02    0,000000000e+00    0,000000000e+00    0,000000000e+00    0,000000000e+00
      250047500    2,845097184e-01    8,969283104e-01    9,129913524e-03    2,991480194e-02    0,000000000e+00    0,000000000e+00    0,000000000e+00    0,000000000e+00
      300047000    6,003285050e-01    7,090592384e-01    1,802980900e-02    3,677496314e-02    0,000000000e+00    0,000000000e+00    0,000000000e+00    0,000000000e+00
      350046500    8,202741146e-01    4,077080190e-01    2,788837440e-02    3,840287775e-02    0,000000000e+00    0,000000000e+00    0,000000000e+00    0,000000000e+00
      400046000    9,067928791e-01    4,900509119e-02    3,609795496e-02    4,011822492e-02    0,000000000e+00    0,000000000e+00    0,000000000e+00    0,000000000e+00
      450045500    8,325659037e-01   -3,089123368e-01    4,630744457e-02    4,059267044e-02    0,000000000e+00    0,000000000e+00    0,000000000e+00    0,000000000e+00
      500045000    6,434490085e-01   -6,141908169e-01    5,977712199e-02    3,781948611e-02    0,000000000e+00    0,000000000e+00    0,000000000e+00    0,000000000e+00
      550044500    3,217467666e-01   -8,100721836e-01    6,880749017e-02    3,059642017e-02    0,000000000e+00    0,000000000e+00    0,000000000e+00    0,000000000e+00
      600044000   -1,621149294e-02   -8,671106100e-01    7,897457480e-02    2,550050989e-02    0,000000000e+00    0,000000000e+00    0,000000000e+00    0,000000000e+00
      650043500   -3,803136349e-01   -7,871286273e-01    9,002186358e-02    1,175956801e-02    0,000000000e+00    0,000000000e+00    0,000000000e+00    0,000000000e+00
      700043000   -6,624438167e-01   -5,455368757e-01    8,999024332e-02   -2,807587851e-03    0,000000000e+00    0,000000000e+00    0,000000000e+00    0,000000000e+00
      750042500   -8,388186097e-01   -1,816172898e-01    8,959008008e-02   -9,629970416e-03    0,000000000e+00    0,000000000e+00    0,000000000e+00    0,000000000e+00
      800042000   -7,722950578e-01    2,459864616e-01    9,356714785e-02   -1,975643635e-02    0,000000000e+00    0,000000000e+00    0,000000000e+00    0,000000000e+00
      850041500   -4,268249869e-01    5,518962741e-01    8,838398010e-02   -2,777278237e-02    0,000000000e+00    0,000000000e+00    0,000000000e+00    0,000000000e+00
      900041000   -4,094478115e-02    4,747523069e-01    9,271065146e-02   -2,851404436e-02    0,000000000e+00    0,000000000e+00    0,000000000e+00    0,000000000e+00
      950040500    4,643373191e-02    2,188463807e-01    1,036957726e-01   -4,066455364e-02    0,000000000e+00    0,000000000e+00    0,000000000e+00    0,000000000e+00
     1000040000   -3,902484104e-02    1,574143469e-01    9,248622507e-02   -7,565931976e-02    0,000000000e+00    0,000000000e+00    0,000000000e+00    0,000000000e+00
     1050039500    2,290566862e-01    1,732818484e-01   -8,779375814e-03   -1,239208281e-01    0,000000000e+00    0,000000000e+00    0,000000000e+00    0,000000000e+00
     1100039000    2,844336927e-01   -2,599781156e-01   -1,081353351e-01   -6,300699711e-02    0,000000000e+00    0,000000000e+00    0,000000000e+00    0,000000000e+00
     1150038500   -2,308890671e-01   -3,523465097e-01   -1,112452149e-01    4,453651607e-02    0,000000000e+00    0,000000000e+00    0,000000000e+00    0,000000000e+00
     1200038000   -3,979144394e-01    2,172743380e-01   -4,225823656e-02    1,153770834e-01    0,000000000e+00    0,000000000e+00    0,000000000e+00    0,000000000e+00
     1250037500    2,236251831e-01    4,276748896e-01    8,025251329e-02    1,117774323e-01    0,000000000e+00    0,000000000e+00    0,000000000e+00    0,000000000e+00
     1300037000    4,093179107e-01   -1,914700568e-01    1,431458741e-01   -4,522025585e-03    0,000000000e+00    0,000000000e+00    0,000000000e+00    0,000000000e+00
     1350036500   -1,665968597e-01   -4,015757442e-01    8,475428820e-02   -1,136658192e-01    0,000000000e+00    0,000000000e+00    0,000000000e+00    0,000000000e+00
     1400036000   -4,759345353e-01    1,843634844e-01   -3,587595746e-02   -1,489360183e-01    0,000000000e+00    0,000000000e+00    0,000000000e+00    0,000000000e+00
     1450035500    1,701912135e-01    5,383327007e-01   -1,593039334e-01   -5,946488678e-02    0,000000000e+00    0,000000000e+00    0,000000000e+00    0,000000000e+00
     1500035000    4,975846112e-01   -8,375059813e-02   -1,357484460e-01    1,034641340e-01    0,000000000e+00    0,000000000e+00    0,000000000e+00    0,000000000e+00
     1550034500   -2,835855074e-02   -4,872588515e-01    7,903319784e-04    1,659919769e-01    0,000000000e+00    0,000000000e+00    0,000000000e+00    0,000000000e+00
     1600034000   -6,091821194e-01   -2,804313414e-02    1,350876540e-01    1,062130779e-01    0,000000000e+00    0,000000000e+00    0,000000000e+00    0,000000000e+00
     1650033500   -1,613060683e-01    6,794925332e-01    1,751820445e-01   -5,160259455e-02    0,000000000e+00    0,000000000e+00    0,000000000e+00    0,000000000e+00
     1700033000    5,382391214e-01    3,010201454e-01    5,628900602e-02   -1,754772514e-01    0,000000000e+00    0,000000000e+00    0,000000000e+00    0,000000000e+00
     1750032500    3,563670814e-01   -3,986390829e-01   -1,077997461e-01   -1,482557505e-01    0,000000000e+00    0,000000000e+00    0,000000000e+00    0,000000000e+00
     1800032000   -4,064144790e-01   -4,642941058e-01   -1,873477995e-01   -3,214826807e-03    0,000000000e+00    0,000000000e+00    0,000000000e+00    0,000000000e+00
     1850031500   -6,707671285e-01    3,782885075e-01   -1,147204489e-01    1,548414975e-01    0,000000000e+00    0,000000000e+00    0,000000000e+00    0,000000000e+00
     1900031000    1,459131241e-01    7,198950648e-01    5,894697458e-02    1,854875684e-01    0,000000000e+00    0,000000000e+00    0,000000000e+00    0,000000000e+00
     1950030500    5,854403973e-01    5,729925260e-02    1,862067878e-01    6,362356246e-02    0,000000000e+00    0,000000000e+00    0,000000000e+00    0,000000000e+00
     2000030000    9,663853049e-02   -5,549758673e-01    1,614684910e-01   -1,167450845e-01    0,000000000e+00    0,000000000e+00    0,000000000e+00    0,000000000e+00
     2050029500   -6,847593784e-01   -2,232935429e-01    1,011869026e-04   -1,958219856e-01    0,000000000e+00    0,000000000e+00    0,000000000e+00    0,000000000e+00
     2100029000   -4,664223492e-01    6,355203986e-01   -1,549642533e-01   -1,196789742e-01    0,000000000e+00    0,000000000e+00    0,000000000e+00    0,000000000e+00
     2150028500    3,663354814e-01    5,394670367e-01   -1,973889619e-01    5,256216228e-02    0,000000000e+00    0,000000000e+00    0,000000000e+00    0,000000000e+00
     2200028000    4,426601827e-01   -2,568610907e-01   -6,784833968e-02    2,001828849e-01    0,000000000e+00    0,000000000e+00    0,000000000e+00    0,000000000e+00
     2250027500   -3,132732213e-01   -5,164753795e-01    1,224117950e-01    1,636393368e-01    0,000000000e+00    0,000000000e+00    0,000000000e+00    0,000000000e+00
     2300027000   -7,135782838e-01    1,694095731e-01    2,003009319e-01    6,651527248e-03    0,000000000e+00    0,000000000e+00    0,000000000e+00    0,000000000e+00
     2350026500   -1,030436084e-01    6,535183787e-01    1,364392936e-01   -1,622343808e-01    0,000000000e+00    0,000000000e+00    0,000000000e+00    0,000000000e+00
     2400026000    4,303612709e-01    1,173477769e-01   -6,654885411e-02   -2,129431665e-01    0,000000000e+00    0,000000000e+00    0,000000000e+00    0,000000000e+00
     2450025500   -4,377996083e-04   -4,422148764e-01   -2,016861290e-01   -5,681432039e-02    0,000000000e+00    0,000000000e+00    0,000000000e+00    0,000000000e+00
     2500025000   -5,636361837e-01   -1,596117616e-01   -1,637015939e-01    1,098305732e-01    0,000000000e+00    0,000000000e+00    0,000000000e+00    0,000000000e+00
     2550024500   -3,727504313e-01    4,195932746e-01   -2,469435148e-02    2,073582411e-01    0,000000000e+00    0,000000000e+00    0,000000000e+00    0,000000000e+00
     2600024000    2,046601623e-01    2,157073021e-01    1,701336801e-01    1,476541609e-01    0,000000000e+00    0,000000000e+00    0,000000000e+00    0,000000000e+00
     2650023500   -5,310713314e-03   -2,832237780e-01    2,079602629e-01   -5,500276759e-02    0,000000000e+00    0,000000000e+00    0,000000000e+00    0,000000000e+00
     2700023000   -4,292328954e-01   -1,244213209e-01    9,225266427e-02   -1,919960380e-01    0,000000000e+00    0,000000000e+00    0,000000000e+00    0,000000000e+00
     2750022500   -2,245014757e-01    2,920966148e-01   -1,036135927e-01   -2,076812685e-01    0,000000000e+00    0,000000000e+00    0,000000000e+00    0,000000000e+00
     2800022000    1,513940096e-01   -5,153360590e-02   -2,338861674e-01   -2,466893569e-02    0,000000000e+00    0,000000000e+00    0,000000000e+00    0,000000000e+00
     2850021500   -2,044148147e-01   -3,842985332e-01   -1,571028829e-01    1,554704607e-01    0,000000000e+00    0,000000000e+00    0,000000000e+00    0,000000000e+00
     2900021000   -6,015441418e-01   -3,660699725e-02    8,770185523e-03    2,396028340e-01    0,000000000e+00    0,000000000e+00    0,000000000e+00    0,000000000e+00
     2950020500   -1,287306398e-01    4,598880410e-01    2,439229190e-01    1,431027651e-01    0,000000000e+00    0,000000000e+00    0,000000000e+00    0,000000000e+00
     3000020000    3,439789116e-01   -1,003804803e-01    2,272282839e-01   -1,449729800e-01    0,000000000e+00    0,000000000e+00    0,000000000e+00    0,000000000e+00
     3050019500   -5,131895095e-02   -5,709935427e-01    1,947342791e-02   -2,317352295e-01    0,000000000e+00    0,000000000e+00    0,000000000e+00    0,000000000e+00
     3100019000   -6,174148321e-01   -4,107848704e-01   -1,494864672e-01   -1,732067764e-01    0,000000000e+00    0,000000000e+00    0,000000000e+00    0,000000000e+00
     3150018500   -6,196739674e-01    3,410396278e-01   -2,542762756e-01    8,484739810e-03    0,000000000e+00    0,000000000e+00    0,000000000e+00    0,000000000e+00
     3200018000    2,428619564e-01    3,632062674e-01   -1,297045797e-01    2,229549289e-01    0,000000000e+00    0,000000000e+00    0,000000000e+00    0,000000000e+00
     3250017500    3,660995364e-01   -3,286041319e-01    8,550698310e-02    2,147689164e-01    0,000000000e+00    0,000000000e+00    0,000000000e+00    0,000000000e+00
     3300017000   -7,888561487e-02   -6,729009748e-01    2,043323070e-01    8,870716393e-02    0,000000000e+00    0,000000000e+00    0,000000000e+00    0,000000000e+00
     3350016500   -6,496078968e-01   -4,587627351e-01    2,334581017e-01   -9,080334008e-02    0,000000000e+00    0,000000000e+00    0,000000000e+00    0,000000000e+00
     3400016000   -5,867624879e-01    3,502636552e-01    8,653643727e-02   -2,920918465e-01    0,000000000e+00    0,000000000e+00    0,000000000e+00    0,000000000e+00
     3450015500    2,824326158e-01    3,423017561e-01   -2,257504612e-01   -2,473001480e-01    0,000000000e+00    0,000000000e+00    0,000000000e+00    0,000000000e+00
     3500015000    4,395247996e-01   -3,339873254e-01   -3,298281431e-01    5,212429166e-02    0,000000000e+00    0,000000000e+00    0,000000000e+00    0,000000000e+00
     3550014500    3,484059358e-03   -7,179718018e-01   -1,635512263e-01    2,991228998e-01    0,000000000e+00    0,000000000e+00    0,000000000e+00    0,000000000e+00
     3600014000   -6,019879580e-01   -5,098537803e-01    1,572584659e-01    3,458756506e-01    0,000000000e+00    0,000000000e+00    0,000000000e+00    0,000000000e+00
     3650013500   -5,748451352e-01    2,708441019e-01    4,288294017e-01    6,547736377e-02    0,000000000e+00    0,000000000e+00    0,000000000e+00    0,000000000e+00
     3700013000    2,500347793e-01    3,675464690e-01    2,701535523e-01   -3,668075204e-01    0,000000000e+00    0,000000000e+00    0,000000000e+00    0,000000000e+00
     3750012500    4,799759388e-01   -2,838158906e-01   -1,491375864e-01   -4,023891091e-01    0,000000000e+00    0,000000000e+00    0,000000000e+00    0,000000000e+00
     3800012000    6,348846108e-02   -6,741408706e-01   -3,897176981e-01   -1,026478037e-01    0,000000000e+00    0,000000000e+00    0,000000000e+00    0,000000000e+00
     3850011500   -4,747799039e-01   -4,946220517e-01   -3,219921291e-01    2,495490164e-01    0,000000000e+00    0,000000000e+00    0,000000000e+00    0,000000000e+00
     3900011000   -5,163887739e-01    1,845753044e-01    6,447777152e-02    4,295191467e-01    0,000000000e+00    0,000000000e+00    0,000000000e+00    0,000000000e+00
     3950010500    1,956056207e-01    3,708629012e-01    4,121881723e-01    1,401516050e-01    0,000000000e+00    0,000000000e+00    0,000000000e+00    0,000000000e+00
     4000010000    4,595083594e-01   -1,921917945e-01    2,883583605e-01   -2,594496012e-01    0,000000000e+00    0,000000000e+00    0,000000000e+00    0,000000000e+00
     4050009500    1,183764637e-01   -5,560319424e-01   -3,113272227e-02   -3,400479555e-01    0,000000000e+00    0,000000000e+00    0,000000000e+00    0,000000000e+00
     4100009000   -3,608319163e-01   -4,358814657e-01   -2,748774886e-01   -1,843344569e-01    0,000000000e+00    0,000000000e+00    0,000000000e+00    0,000000000e+00
     4150008500   -4,505395591e-01    1,580554694e-01   -3,146739006e-01    1,310464293e-01    0,000000000e+00    0,000000000e+00    0,000000000e+00    0,000000000e+00
     4200008000    1,567232162e-01    3,479480445e-01   -3,373187408e-02    3,261907697e-01    0,000000000e+00    0,000000000e+00    0,000000000e+00    0,000000000e+00
     4250007500    3,954023421e-01   -1,112795174e-01    2,194986343e-01    1,752651781e-01    0,000000000e+00    0,000000000e+00    0,000000000e+00    0,000000000e+00
     4300007000    1,224062517e-01   -4,341718853e-01    2,398580611e-01   -5,319570750e-02    0,000000000e+00    0,000000000e+00    0,000000000e+00    0,000000000e+00
     4350006500   -2,940313816e-01   -3,411176801e-01    1,112171486e-01   -2,153310478e-01    0,000000000e+00    0,000000000e+00    0,000000000e+00    0,000000000e+00
     4400006000   -3,334676325e-01    1,454927772e-01   -1,209228188e-01   -2,199499756e-01    0,000000000e+00    0,000000000e+00    0,000000000e+00    0,000000000e+00
     4450005500    1,115361676e-01    2,290057689e-01   -2,352582514e-01   -5,800992250e-03    0,000000000e+00    0,000000000e+00    0,000000000e+00    0,000000000e+00
     4500005000    2,263205796e-01   -7,961603999e-02   -1,212278455e-01    1,694195569e-01    0,000000000e+00    0,000000000e+00    0,000000000e+00    0,000000000e+00
     4550004500    4,014066607e-02   -2,182205468e-01    5,647140741e-02    1,823983192e-01    0,000000000e+00    0,000000000e+00    0,000000000e+00    0,000000000e+00
     4600004000   -7,291491330e-02   -1,299379617e-01    1,620282829e-01    6,897945702e-02    0,000000000e+00    0,000000000e+00    0,000000000e+00    0,000000000e+00
     4650003500   -8,197732270e-02   -8,171368390e-02    1,420978904e-01   -8,314123750e-02    0,000000000e+00    0,000000000e+00    0,000000000e+00    0,000000000e+00
     4700003000   -7,670346648e-02   -1,029521506e-02    1,591777243e-02   -1,566753238e-01    0,000000000e+00    0,000000000e+00    0,000000000e+00    0,000000000e+00
     4750002500   -3,809100762e-02    1,560572628e-02   -1,103229150e-01   -9,524434805e-02    0,000000000e+00    0,000000000e+00    0,000000000e+00    0,000000000e+00
     4800002000    1,947207004e-02    6,727661937e-02   -1,286302656e-01    3,255641460e-02    0,000000000e+00    0,000000000e+00    0,000000000e+00    0,000000000e+00
     4850001500    1,708914340e-01    1,666160859e-02   -4,902257770e-02    1,112925261e-01    0,000000000e+00    0,000000000e+00    0,000000000e+00    0,000000000e+00
     4900001000    1,872400939e-01   -2,082055956e-01    5,548918247e-02    9,830953181e-02    0,000000000e+00    0,000000000e+00    0,000000000e+00    0,000000000e+00
     4950000500   -8,387617767e-02   -3,440156579e-01    1,055903211e-01    1,008649729e-02    0,000000000e+00    0,000000000e+00    0,000000000e+00    0,000000000e+00
     5000000000   -3,664509654e-01   -3,909073770e-02    5,592639372e-02   -7,356733829e-02    0,000000000e+00    0,000000000e+00    0,000000000e+00    0,000000000e+00
