#Digilent WaveForms Impedance Analyzer
#Device Name: Discovery2
#Serial Number: SN:210321B19DF1
#Date Time: 
#Digilent WaveForms Impedance Analyzer Trace#Trace: Trace
#Start: 100 Hz
#Stop: 2.5e+07 Hz
#Steps: 1001
#Resistor: 1000 O
#Average: 1
#ProbeResistance: 1.04e+06 O
#ProbeCapacitance: 4.3e-11 F
#Compensation:none
#Wavegen: Wavegen1
#Amplitude: 1 V
#Offset: 0 V
#Amplification: 1 X
#Settle: 0.01 s
#MinPeriods: 16
#Scale: Logarithmic
#Channel: Channel 1
#Range: 5.59649 V
#Offset: -0.000293363 V
#Attenuation: 1 X
#Channel: Channel 2
#Range: 5.52037 V
#Offset: 0.000204438 V
#Attenuation: 1 X

Frequency (Hz),Trace th (deg),Trace |Z| (Ohm),Trace Rs (Ohm)
100.0000000000002,-0.8302139636718299,1218.553310803389,1218.425389833911
101.2506779923468,-0.838058092336762,1218.629013657296,1218.498655936558
102.5169979390988,-0.8489518227115049,1218.604196844322,1218.470430901895
103.7991554707375,-0.856845510904867,1218.508490789842,1218.372236477323
105.0973486644516,-0.8747516089678326,1218.577410698105,1218.435394158362
106.4117780747377,-0.8842126790780902,1218.51302376701,1218.367926319737
107.7426467643831,-0.890846195445392,1218.347389578381,1218.200126936747
109.0901603358368,-0.9023160577685797,1218.536935326533,1218.385832762525
110.4545269629727,-0.9163666018200102,1218.531384220611,1218.375539998355
111.8359574232491,-0.9224598308476998,1218.563564354293,1218.405636594857
113.2346651302718,-0.9336918525069683,1218.52142873585,1218.359637334052
114.6508661667634,-0.9535547801495952,1218.374046052913,1218.205318250717
116.0847793179459,-0.9633128994624879,1218.388978935353,1218.216778112382
117.5366261053395,-0.9732490617243889,1218.464804069414,1218.289021716543
119.0066308209857,-0.9828941446349907,1218.462304053323,1218.2830208173
120.4950205620969,-0.9989022480518236,1218.304356840024,1218.119210335343
122.0020252661405,-1.009579148604563,1218.39042239539,1218.201283554262
123.5278777463613,-1.021061356762413,1218.264637022831,1218.071191552885
125.0728137277478,-1.035522231005891,1218.333744991719,1218.134770206278
126.6370718834493,-1.047168432322552,1218.39419795928,1218.190712417933
128.2208938716475,-1.057371443403065,1218.294116375964,1218.086663378197
129.8245243728903,-1.071239625691745,1218.272642755033,1218.059716194751
131.4482111278906,-1.086993152447365,1218.14518360724,1217.925971577991
133.0922049758004,-1.101494829236974,1218.195204476061,1217.97009531229
134.7567598929616,-1.116595165066486,1218.065344562478,1217.834045928715
136.4421330321422,-1.128734721150025,1218.075865124913,1217.839507944057
138.1485847622634,-1.143683573224402,1218.092496771166,1217.849834446318
139.8763787086233,-1.158675882017506,1218.029151961151,1217.780099088251
141.6257817936234,-1.174954877330573,1217.981986029007,1217.725895945423
143.397064278005,-1.189972222582713,1218.10505545278,1217.842350946977
145.1904998026012,-1.200874269153711,1218.192585187377,1217.925025997928
147.0063654306103,-1.214036330240199,1218.22546271564,1217.951999113686
148.8449416903995,-1.233659613941335,1218.013345908486,1217.731020020237
150.7065126188425,-1.244177918492387,1218.108991197475,1217.821808149045
152.591365805199,-1.26357466698099,1217.970942536082,1217.674769248961
154.4997924355457,-1.277781946170011,1218.079326742987,1217.776429160406
156.4320873377582,-1.296522592998509,1217.971520780272,1217.659701101805
158.38854902706,-1.308096916293099,1217.877552147297,1217.560164993593
160.3694797521385,-1.325828934383592,1217.836848578369,1217.510809650593
162.3751855418392,-1.342750548817787,1217.852174700914,1217.517756338704
164.4059762524429,-1.358057176028908,1217.945433292933,1217.603321261669
166.4621656155348,-1.372780480160791,1217.698559310646,1217.34906030363
168.5440712864718,-1.389406238289598,1217.875909824579,1217.517842256867
170.6520148934566,-1.411464043800876,1217.816518913881,1217.447010548212
172.7863220872251,-1.42872520188682,1217.836370483385,1217.457763529253
174.9473225913551,-1.448169184875721,1217.83694080501,1217.447958929098
177.1353502532047,-1.46600791163334,1217.769035974508,1217.370434775174
179.3507430954872,-1.482624925484726,1217.607761057058,1217.200126956711
181.5938433684925,-1.502226519850115,1217.563001163077,1217.14453326045
183.8649976029586,-1.524734299250781,1217.680828842764,1217.249686261034
186.1645566636074,-1.537123531545278,1217.504444840334,1217.066331185682
188.4928758033487,-1.554422599810251,1217.443457606469,1216.995450291009
190.8503147181623,-1.569153758231584,1217.610600314875,1217.153999147619
193.2372376026666,-1.594996241936672,1217.513989680988,1217.042263499043
195.6540132063816,-1.614556335845603,1217.460999466659,1216.977654205467
198.1010148906967,-1.641649802202557,1217.318809176632,1216.819165497001
200.5786206865499,-1.655563648974064,1217.266813964939,1216.758687203186
203.0872133528289,-1.677231893830802,1217.196078042864,1216.674594634809
205.6271804355027,-1.700635897540467,1217.248037350795,1216.711877089909
208.1989143274919,-1.71992136643943,1216.923570708848,1216.375328316416
210.8028123292903,-1.738125199084242,1217.11466888159,1216.554672730569
213.4392767103404,-1.761158536836175,1216.957987634524,1216.383126384421
216.1087147711804,-1.782307916330001,1216.992661689771,1216.403895109755
218.8115389063666,-1.809233502320701,1216.903881237565,1216.297236868056
221.5481666681834,-1.823621896803641,1216.944986701266,1216.328634972094
224.3190208311492,-1.849546729579581,1216.86034879495,1216.226393865433
227.1245294573322,-1.869681092012809,1216.682535356122,1216.034798592436
229.9651259624753,-1.899078951336997,1216.740497256963,1216.072201070375
232.8412491829606,-1.920617297198862,1216.624518123639,1215.941043635507
235.7533434435962,-1.944630951684705,1216.581606601665,1215.880960543473
238.701858626267,-1.973129350221028,1216.412617646529,1215.691387538824
241.6872502394275,-1.988810990469164,1216.454365998848,1215.721602247632
244.7099794884796,-2.015658505462077,1216.563917854754,1215.811171275753
247.7705133470179,-2.041061863262405,1216.400860540522,1215.629126127367
250.8693246289732,-2.066789344842026,1216.323951897219,1215.532691675382
254.0068920616562,-2.089335968980172,1216.244003085796,1215.435440042412
257.183700359715,-2.115605591097753,1216.026812379846,1215.19793944506
260.4002403000165,-2.146270210481009,1215.959474978202,1215.10644979708
263.6570087974658,-2.171409135148146,1215.973349354237,1215.100216890295
266.9545089817751,-2.197755167259573,1215.916326564832,1215.021922428885
270.2932502751869,-2.223435085024703,1215.863746863226,1214.948361306419
273.673748471177,-2.250865444007844,1215.787638915865,1214.84958959018
277.0965258141359,-2.281797366365716,1215.657209925057,1214.693308509636
280.5621110800503,-2.305361781603555,1215.687871212761,1214.703936213261
284.0710396581915,-2.336663252589312,1215.595387150585,1214.584632272695
287.6238536338266,-2.36643536622091,1215.43672877757,1214.400192153215
291.221101871964,-2.398027380920773,1215.279875875193,1214.215620325428
294.8633401021459,-2.42119587156892,1215.161976756156,1214.077165626653
298.5511310043015,-2.449065159432919,1215.134267220009,1214.024367957042
302.2850442956741,-2.485076604326729,1215.000057071969,1213.857408936136
306.0656568188352,-2.51289457799015,1214.837334588033,1213.669122242122
309.8935526307988,-2.54661195142088,1214.766532900451,1213.566835807719
313.7693230932531,-2.5721885015321,1214.778523523039,1213.554599416139
317.6935669639153,-2.605210624111054,1214.499329627523,1213.244071984624
321.6668904890338,-2.645356802569579,1214.523971410433,1213.229709424005
325.6899074970457,-2.672797930281884,1214.414963932817,1213.093834574821
329.7632394934053,-2.702316667787235,1214.262921951668,1212.9126245082
333.8875157565984,-2.740568676446734,1214.084034295137,1212.695450593441
338.0633734353589,-2.769860227598205,1214.130320778414,1212.711847462561
342.2914576470994,-2.809111019486881,1213.881209539516,1212.422557384311
346.572421577574,-2.835807601347754,1213.759336026091,1212.272982255807
350.9069265817873,-2.870807598596779,1213.623469266625,1212.10037767873
355.2956422861655,-2.915532435080931,1213.404147838829,1211.833523744214
359.739246692005,-2.942399544481574,1213.330991026706,1211.731389276899
364.2384262802146,-2.988812624143923,1213.191510658809,1211.541248291205
368.7938761173707,-3.021589195684934,1213.078327764365,1211.391837783444
373.4062999630926,-3.057651581310217,1212.767621221122,1211.041086754566
378.0764103787667,-3.090700500474462,1212.738463493801,1210.974456009628
382.8049288376279,-3.128230387448615,1212.553054185656,1210.74623345848
387.592585836218,-3.173456982147411,1212.476783379564,1210.617470944967
392.4401210072386,-3.207300346133598,1212.34312264456,1210.444161206342
397.3482832338145,-3.245140244707498,1212.098054972681,1210.154426137614
402.3178307651868,-3.288485898993381,1211.927796674799,1209.932193296415
407.3495313338531,-3.328152830642957,1211.725105035258,1209.681423361438
412.4441622741726,-3.370463603342458,1211.558028949566,1209.462358444932
417.6025106424539,-3.410548668606158,1211.280577814413,1209.135269296939
422.8253733385458,-3.453338349452618,1211.19375914751,1208.994455724679
428.1135572289475,-3.488551938993753,1210.914688006936,1208.670834493152
433.4678792714619,-3.534127118363688,1211.001718890448,1208.698707258456
438.8891666414016,-3.572890464054999,1210.640196496155,1208.287106729512
444.3782568593789,-3.621709021893664,1210.268997789814,1207.851928237308
449.9359979206926,-3.665911484172967,1210.131772231145,1207.655643667509
455.5632484263316,-3.705303279142163,1209.987692772143,1207.458383996776
461.2608777156189,-3.754325743525829,1209.683230857233,1207.087229545364
467.0297660005128,-3.800843328653533,1209.517779641138,1206.857436464521
472.870804501589,-3.843886063321268,1209.23803224173,1206.517745704605
478.7848955857226,-3.891772875032658,1208.948154774509,1206.160362515122
484.7729529054928,-3.93840662734614,1208.716579616964,1205.86215013669
490.8359015403304,-3.988956122224692,1208.52782958995,1205.600143646533
496.9746781394313,-4.041399190029191,1208.274913336653,1205.270401432023
503.1902310664553,-4.083811046005144,1208.21752366328,1205.14979262589
509.4835205460415,-4.131686710435856,1207.752226791083,1204.613387012382
515.8555188121434,-4.185618536532192,1207.477338563722,1204.256789877855
522.3072102582321,-4.232937594895983,1207.288045270469,1203.994817048319
528.8395915893711,-4.283683361879954,1206.961154376824,1203.58944256515
535.453671976195,-4.340359990253176,1206.705345875315,1203.244599423885
542.1504732108129,-4.388951105221008,1206.30517112671,1202.767715174941
548.9310298646634,-4.442680366550382,1206.058413036547,1202.434601412323
555.7963894483422,-4.495478109232017,1205.778126193447,1202.068577241261
562.7476125734296,-4.55229725587593,1205.399815242897,1201.597145499733
569.7857731163413,-4.602413598023693,1205.005427719988,1201.11988672239
576.9119583842291,-4.654797419467286,1204.667345030249,1200.694015678958
584.1272692829564,-4.713499383550529,1204.4905750429,1200.417052636763
591.4328204871733,-4.767458996067008,1204.097076606123,1199.931169434209
598.8297406125198,-4.824128833686204,1203.783839666226,1199.519473741011
606.3191723899868,-4.885119818475268,1203.365403816956,1198.994114080182
613.9022728424463,-4.930887372500957,1203.034633679855,1198.582328001235
621.5802134634022,-4.997330493459526,1202.686642249194,1198.114938962543
629.3541803979699,-5.059580996893964,1202.182276349977,1197.498006258885
637.2253746261205,-5.117442160698157,1201.874277279457,1197.083555664164
645.1950121482174,-5.185022979921339,1201.499830801074,1196.58336053147
653.2643241728731,-5.244327103127669,1200.998960534014,1195.971557670262
661.4345573071548,-5.294552651991152,1200.421802875226,1195.300174131258
669.7069737491705,-5.366602024126245,1200.131313515938,1194.870719888379
678.0828514830616,-5.428203660492361,1199.664271447191,1194.284400390247
686.5634844764364,-5.489549811067246,1199.162718835559,1193.662954653369
695.1501828802711,-5.55886946088882,1198.797274229811,1193.159564087429
703.8442732313102,-5.61867559430249,1198.158530993941,1192.402026148237
712.6470986570059,-5.688598897906171,1197.661955418808,1191.763845847979
721.5600190830055,-5.754240494081643,1197.185706567858,1191.153208168291
730.5844114432485,-5.820432960911313,1196.907268657593,1190.736740850242
739.721669892684,-5.888241357569342,1196.214017377057,1189.90266300171
748.9732060226504,-5.956418042463572,1195.67483892614,1189.219530468813
758.3404490789483,-6.031155200847484,1195.114311430885,1188.499245987926
767.8248461826411,-6.0913623425929,1194.524911293345,1187.780567183289
777.4278625536161,-6.168983334682218,1194.013861009634,1187.099664632565
787.1509817369447,-6.240796792899495,1193.338337168196,1186.266390166376
796.9957058320688,-6.311732205591038,1192.735312993362,1185.50550591372
806.9635557248577,-6.386601688078566,1192.016611852499,1184.618907175429
817.056071322566,-6.463494063619566,1191.397275615233,1183.824493957911
827.2748117917272,-6.535669359883856,1190.690442953353,1182.952370490066
837.621355799033,-6.603835003680867,1190.0305656407,1182.134796420919
848.0973017552066,-6.679938299417039,1189.628329694324,1181.552466479695
858.704268061944,-6.758771833838426,1188.606548145556,1180.346268280294
869.4438933619339,-6.835027671303568,1188.136979683079,1179.692814721975
880.3178367920146,-6.914225079706417,1187.325195586771,1178.690354605721
891.327778239472,-6.993143586193009,1186.584840736212,1177.757513678562
902.4754186015866,-7.066349800108051,1185.87106716849,1176.86361594355
913.7624800483726,-7.150543768317016,1185.08541275842,1175.868430043241
925.1907062886597,-7.236540353016423,1184.219571975558,1174.786751925874
936.7618628394461,-7.314178834349782,1183.47355571889,1173.843593379706
948.4777372986767,-7.392008634660267,1182.676527230065,1172.847440494813
960.3401396213762,-7.474752929629713,1181.624774773194,1171.583659199612
972.3509023992912,-7.552564450043516,1181.007561144379,1170.761962073178
984.5118811439826,-7.633003450954182,1180.073962814792,1169.617555935021
996.8249545734876,-7.720063148845964,1179.039918992716,1168.353362070169
1009.292024902557,-7.806747770800735,1178.420921767003,1167.499140215247
1021.915018136522,-7.891922759468392,1177.471925052904,1166.319887766892
1034.695884368839,-7.984375631033726,1176.417428107384,1165.01321869436
1047.636598082358,-8.076316778841266,1175.587537089608,1163.927842046875
1060.73915845434,-8.155363227145978,1174.512024708054,1162.634239614
1074.005589665333,-8.241965946501164,1173.403980334455,1161.284474653241
1087.437941211847,-8.326408303313821,1172.358411940969,1160.000755994148
1101.038288223013,-8.421069287099295,1171.392724918002,1158.763409537641
1114.808731781125,-8.515288538172031,1170.306711302444,1157.405703470511
1128.751399246272,-8.605350751698781,1169.23419626719,1156.071439285743
1142.868444584947,-8.694010863366087,1168.07907041604,1154.657482975481
1157.162048702844,-8.783911631057368,1166.989507179345,1153.302237517417
1171.634419781758,-8.888436205728047,1165.701208687914,1151.702384786427
1186.287793620726,-8.97754563104608,1164.541329472721,1150.275199564624
1201.124433981434,-9.071036813098855,1163.37053123423,1148.820988879572
1216.146632937937,-9.165777531651752,1162.077835703693,1147.2399438392
1231.356711230753,-9.25875724779195,1160.830454388266,1145.706907607992
1246.757018625402,-9.356060210378885,1159.588440595003,1144.162580728058
1262.349934275383,-9.451835706334228,1158.357385244796,1142.631521059943
1278.137867089767,-9.541816646696187,1156.911801520465,1140.905788873219
1294.123256105307,-9.639683438524742,1155.568083400345,1139.251803465905
1310.308570863255,-9.740191654931607,1154.219610996208,1137.581575938578
1326.696311790873,-9.841257127138773,1152.901338241922,1135.936487062404
1343.289010587715,-9.933320883050092,1151.519273180137,1134.25704655065
1360.089230616745,-10.03103985811541,1150.043157870133,1132.463063384228
1377.099567300345,-10.12889177626552,1148.500736835058,1130.600922138474
1394.322648521271,-10.23859615719391,1147.005496169503,1128.740689703433
1411.76113502863,-10.33640629435704,1145.690361218005,1127.097212026671
1429.417720848933,-10.42831420441597,1143.91484878788,1125.019826291739
1447.295133702292,-10.54442208083586,1142.280843079669,1122.991515148379
1465.39613542381,-10.64887657591297,1140.635908388785,1120.991957194529
1483.723522390253,-10.74851472653696,1139.130212014321,1119.144437453628
1502.280125952057,-10.83787767298326,1137.258001148487,1116.97291231958
1521.068812870736,-10.96487382958547,1135.865741271938,1115.129351001416
1540.092485761758,-11.04196728478571,1133.95018054663,1112.957540908879
1559.354083542964,-11.15367681502023,1132.044124709623,1110.6619300011
1578.856581888593,-11.25496155494838,1130.436923593069,1108.696793395997
1598.602993688989,-11.35718412165519,1128.627967428024,1106.527858401036
1618.596369516051,-11.46831436186139,1126.718240557017,1104.223095645402
1638.839798094509,-11.57241571978247,1124.733494213962,1101.869846874575
1659.336406779094,-11.66858470514223,1122.917297119511,1099.710921800297
1680.089362037671,-11.78606160226817,1120.872134786727,1097.240908333401
1701.101869940433,-11.88223842824803,1119.063617765854,1095.085286022193
1722.377176655174,-11.98340592111203,1117.009598460583,1092.667474372679
1743.9185689488,-12.09103548452142,1114.725701366881,1089.996650682049
1765.729374695088,-12.1901193217789,1112.864409304804,1087.77190182634
1787.812963388799,-12.29464649103573,1110.818871583132,1085.342768350891
1810.172746666222,-12.39883544550992,1108.661850603261,1082.804134130726
1832.812178832232,-12.5065928419647,1106.37481529108,1080.121753116156
1855.734757393934,-12.61847880485367,1104.352193491778,1077.678064313403
1878.944023600987,-12.70751562390269,1101.770273434217,1074.783179404966
1902.443562992676,-12.81611975471609,1099.665328065159,1072.269348855767
1926.237005951839,-12.92453619479823,1097.37109993321,1069.569752645657
1950.328028265715,-13.01382545336604,1095.085887852929,1066.95943449078
1974.720351693801,-13.12348203378433,1092.912990603016,1064.369376543669
1999.41774454282,-13.23400386305996,1090.456331593096,1061.497311676281
2024.42402224889,-13.32882114513968,1087.909165672983,1058.604188187735
2049.743047966934,-13.4208431676054,1085.795480901423,1056.144043861609
2075.37873316751,-13.52614986738212,1083.298230808001,1053.251084998141
2101.335038241078,-13.63394125020615,1080.650023406664,1050.198964562216
2127.615973109826,-13.72677458834991,1078.097667357528,1047.305406542949
2154.225597847162,-13.83325744206797,1075.452507246442,1044.259716134326
2181.168023304933,-13.93173639040268,1072.85961103996,1041.299588758554
2208.447411748508,-14.02536318678049,1070.132141018496,1038.229938832982
2236.067977499795,-14.1220762648611,1067.613180322217,1035.347857606956
2264.033987588294,-14.23160163682618,1065.008977256561,1032.323747922205
2292.349762410307,-14.32183297916501,1062.31794845278,1029.30274286247
2321.019676396382,-14.40450087633906,1059.624337090755,1026.313586186926
2350.048158687101,-14.5027564228066,1056.822709273806,1023.147681197732
2379.439693817346,-14.59252629212441,1053.997745884486,1019.997931266581
2409.198822409079,-14.68192004491802,1051.143258460344,1016.821096629855
2439.330141872822,-14.78415536175339,1048.337029310904,1013.630776161852
2469.838307117902,-14.87439682433172,1045.454854498614,1010.422587676618
2500.728031271571,-14.94532096020692,1042.589409486809,1007.321096326935
2532.004086407127,-15.05000483857276,1039.713908570953,1004.051278970499
2563.671304281137,-15.13419202686853,1036.516943299603,1000.567425538134
