# Hz S RI R 50
!     Frequency           S11_Real           S11_Imag           S21_Real           S21_Imag           S12_Real           S12_Imag           S22_Real           S22_Imag
          50000    9.108324051e-01   -2.638287144e-03    5.598042533e-02   -4.233717918e-02    0.000000000e+00    0.000000000e+00    0.000000000e+00    0.000000000e+00
         299500    7.426438332e-01   -1.611612588e-01    1.762391180e-01   -1.463965476e-01    0.000000000e+00    0.000000000e+00    0.000000000e+00    0.000000000e+00
         549000    7.826237082e-01    5.346704740e-03    2.560591996e-01   -9.414363652e-02    0.000000000e+00    0.000000000e+00    0.000000000e+00    0.000000000e+00
         798500    7.861282229e-01   -3.727635602e-03    2.274613976e-01   -9.334213287e-02    0.000000000e+00    0.000000000e+00    0.000000000e+00    0.000000000e+00
        1048000    7.849914432e-01   -2.481387369e-02    2.172333300e-01   -8.517345041e-02    0.000000000e+00    0.000000000e+00    0.000000000e+00    0.000000000e+00
        1297500    7.842265368e-01   -4.474773630e-02    2.125032544e-01   -7.709422708e-02    0.000000000e+00    0.000000000e+00    0.000000000e+00    0.000000000e+00
        1547000    7.817754149e-01   -6.405880302e-02    2.095568925e-01   -6.944030523e-02    0.000000000e+00    0.000000000e+00    0.000000000e+00    0.000000000e+00
        1796500    7.795407176e-01   -8.166424930e-02    2.081473619e-01   -6.178601831e-02    0.000000000e+00    0.000000000e+00    0.000000000e+00    0.000000000e+00
        2046000    7.778026462e-01   -9.715858847e-02    2.066261917e-01   -5.434498563e-02    0.000000000e+00    0.000000000e+00    0.000000000e+00    0.000000000e+00
        2295500    7.767471075e-01   -1.138261408e-01    2.054222375e-01   -4.715745151e-02    0.000000000e+00    0.000000000e+00    0.000000000e+00    0.000000000e+00
        2545000    7.768861651e-01   -1.269603521e-01    2.049593180e-01   -4.014380649e-02    0.000000000e+00    0.000000000e+00    0.000000000e+00    0.000000000e+00
        2794500    7.765300870e-01   -1.414673626e-01    2.041661441e-01   -3.346344084e-02    0.000000000e+00    0.000000000e+00    0.000000000e+00    0.000000000e+00
        3044000    7.765392661e-01   -1.528739929e-01    2.036990672e-01   -2.680844441e-02    0.000000000e+00    0.000000000e+00    0.000000000e+00    0.000000000e+00
        3293500    7.761510611e-01   -1.631417722e-01    2.034487575e-01   -2.043037675e-02    0.000000000e+00    0.000000000e+00    0.000000000e+00    0.000000000e+00
        3543000    7.770704627e-01   -1.724300534e-01    2.027576268e-01   -1.451303158e-02    0.000000000e+00    0.000000000e+00    0.000000000e+00    0.000000000e+00
        3792500    7.774962187e-01   -1.819746047e-01    2.020725906e-01   -8.730968460e-03    0.000000000e+00    0.000000000e+00    0.000000000e+00    0.000000000e+00
        4042000    7.784678340e-01   -1.887207478e-01    2.014952153e-01   -3.117351327e-03    0.000000000e+00    0.000000000e+00    0.000000000e+00    0.000000000e+00
        4291500    7.791678309e-01   -1.954545826e-01    2.006495744e-01    2.248534700e-03    0.000000000e+00    0.000000000e+00    0.000000000e+00    0.000000000e+00
        4541000    7.798867226e-01   -2.015539855e-01    1.996010095e-01    7.263898849e-03    0.000000000e+00    0.000000000e+00    0.000000000e+00    0.000000000e+00
        4790500    7.799909115e-01   -2.062504143e-01    1.981368363e-01    1.224730257e-02    0.000000000e+00    0.000000000e+00    0.000000000e+00    0.000000000e+00
        5040000    7.800149322e-01   -2.098182142e-01    1.965700388e-01    1.709546335e-02    0.000000000e+00    0.000000000e+00    0.000000000e+00    0.000000000e+00
        5289500    7.807832956e-01   -2.144273371e-01    1.953676492e-01    2.178673632e-02    0.000000000e+00    0.000000000e+00    0.000000000e+00    0.000000000e+00
        5539000    7.802190781e-01   -2.176165432e-01    1.934091300e-01    2.629636973e-02    0.000000000e+00    0.000000000e+00    0.000000000e+00    0.000000000e+00
        5788500    7.797467709e-01   -2.202901840e-01    1.915746033e-01    3.067089245e-02    0.000000000e+00    0.000000000e+00    0.000000000e+00    0.000000000e+00
        6038000    7.799363136e-01   -2.216922194e-01    1.924848557e-01    2.136004344e-02    0.000000000e+00    0.000000000e+00    0.000000000e+00    0.000000000e+00
        6287500    7.789801955e-01   -2.236714661e-01    1.906060576e-01    2.570927329e-02    0.000000000e+00    0.000000000e+00    0.000000000e+00    0.000000000e+00
        6537000    7.788383365e-01   -2.255170792e-01    1.887163818e-01    3.009426035e-02    0.000000000e+00    0.000000000e+00    0.000000000e+00    0.000000000e+00
        6786500    7.775761485e-01   -2.268966436e-01    1.866827309e-01    3.433430567e-02    0.000000000e+00    0.000000000e+00    0.000000000e+00    0.000000000e+00
        7036000    7.762764692e-01   -2.275223583e-01    1.845191717e-01    3.846971318e-02    0.000000000e+00    0.000000000e+00    0.000000000e+00    0.000000000e+00
        7285500    7.753511667e-01   -2.283714563e-01    1.824698448e-01    4.258700088e-02    0.000000000e+00    0.000000000e+00    0.000000000e+00    0.000000000e+00
        7535000    7.739510536e-01   -2.298081964e-01    1.805409193e-01    4.661216214e-02    0.000000000e+00    0.000000000e+00    0.000000000e+00    0.000000000e+00
        7784500    7.719601393e-01   -2.302071154e-01    1.785457134e-01    5.045576766e-02    0.000000000e+00    0.000000000e+00    0.000000000e+00    0.000000000e+00
        8034000    7.704429626e-01   -2.304086834e-01    1.766006500e-01    5.437167734e-02    0.000000000e+00    0.000000000e+00    0.000000000e+00    0.000000000e+00
        8283500    7.678612471e-01   -2.311239988e-01    1.748103946e-01    5.810610950e-02    0.000000000e+00    0.000000000e+00    0.000000000e+00    0.000000000e+00
        8533000    7.651693821e-01   -2.311641425e-01    1.731898636e-01    6.173007190e-02    0.000000000e+00    0.000000000e+00    0.000000000e+00    0.000000000e+00
        8782500    7.633751631e-01   -2.318066359e-01    1.718503386e-01    6.511511654e-02    0.000000000e+00    0.000000000e+00    0.000000000e+00    0.000000000e+00
        9032000    7.600895762e-01   -2.321498543e-01    1.704877168e-01    6.841162592e-02    0.000000000e+00    0.000000000e+00    0.000000000e+00    0.000000000e+00
        9281500    7.565771937e-01   -2.330307513e-01    1.696435660e-01    7.139640301e-02    0.000000000e+00    0.000000000e+00    0.000000000e+00    0.000000000e+00
        9531000    7.537790537e-01   -2.335841209e-01    1.689491272e-01    7.427427173e-02    0.000000000e+00    0.000000000e+00    0.000000000e+00    0.000000000e+00
        9780500    7.508440614e-01   -2.342976928e-01    1.686583310e-01    7.696269453e-02    0.000000000e+00    0.000000000e+00    0.000000000e+00    0.000000000e+00
       10030000    7.465406060e-01   -2.355214357e-01    1.687198132e-01    7.905235887e-02    0.000000000e+00    0.000000000e+00    0.000000000e+00    0.000000000e+00
       10279500    7.428830266e-01   -2.361794710e-01    1.690514982e-01    8.121638000e-02    0.000000000e+00    0.000000000e+00    0.000000000e+00    0.000000000e+00
       10529000    7.392250896e-01   -2.371475399e-01    1.696661413e-01    8.285691589e-02    0.000000000e+00    0.000000000e+00    0.000000000e+00    0.000000000e+00
       10778500    7.349247336e-01   -2.380932570e-01    1.704194546e-01    8.443044871e-02    0.000000000e+00    0.000000000e+00    0.000000000e+00    0.000000000e+00
       11028000    7.311079502e-01   -2.393802404e-01    1.715694964e-01    8.586235344e-02    0.000000000e+00    0.000000000e+00    0.000000000e+00    0.000000000e+00
       11277500    7.264967561e-01   -2.401026040e-01    1.728104651e-01    8.695673198e-02    0.000000000e+00    0.000000000e+00    0.000000000e+00    0.000000000e+00
       11527000    7.222970128e-01   -2.407102287e-01    1.742377728e-01    8.779302984e-02    0.000000000e+00    0.000000000e+00    0.000000000e+00    0.000000000e+00
       11776500    7.176777124e-01   -2.416153103e-01    1.759287715e-01    8.845711499e-02    0.000000000e+00    0.000000000e+00    0.000000000e+00    0.000000000e+00
       12026000    7.127251029e-01   -2.427093685e-01    1.779435575e-01    8.887396753e-02    0.000000000e+00    0.000000000e+00    0.000000000e+00    0.000000000e+00
       12275500    7.087397575e-01   -2.436658740e-01    1.799889058e-01    8.900496364e-02    0.000000000e+00    0.000000000e+00    0.000000000e+00    0.000000000e+00
       12525000    7.040361762e-01   -2.448140681e-01    1.822168827e-01    8.892509341e-02    0.000000000e+00    0.000000000e+00    0.000000000e+00    0.000000000e+00
       12774500    6.988493800e-01   -2.454961985e-01    1.846902221e-01    8.871991932e-02    0.000000000e+00    0.000000000e+00    0.000000000e+00    0.000000000e+00
       13024000    6.939496994e-01   -2.461224198e-01    1.871712506e-01    8.805594593e-02    0.000000000e+00    0.000000000e+00    0.000000000e+00    0.000000000e+00
       13273500    6.892781854e-01   -2.466650009e-01    1.897926480e-01    8.738671243e-02    0.000000000e+00    0.000000000e+00    0.000000000e+00    0.000000000e+00
       13523000    6.838937402e-01   -2.477912754e-01    1.925509125e-01    8.624324203e-02    0.000000000e+00    0.000000000e+00    0.000000000e+00    0.000000000e+00
       13772500    6.784828305e-01   -2.484243214e-01    1.954409778e-01    8.499727398e-02    0.000000000e+00    0.000000000e+00    0.000000000e+00    0.000000000e+00
       14022000    6.739323139e-01   -2.489017099e-01    1.985517889e-01    8.364824206e-02    0.000000000e+00    0.000000000e+00    0.000000000e+00    0.000000000e+00
       14271500    6.689249873e-01   -2.499888241e-01    2.015280873e-01    8.187275380e-02    0.000000000e+00    0.000000000e+00    0.000000000e+00    0.000000000e+00
       14521000    6.634464860e-01   -2.507345676e-01    2.047204077e-01    8.013230562e-02    0.000000000e+00    0.000000000e+00    0.000000000e+00    0.000000000e+00
       14770500    6.585114002e-01   -2.509916723e-01    2.077792734e-01    7.807918638e-02    0.000000000e+00    0.000000000e+00    0.000000000e+00    0.000000000e+00
       15020000    6.532800794e-01   -2.521154284e-01    2.108980268e-01    7.576651126e-02    0.000000000e+00    0.000000000e+00    0.000000000e+00    0.000000000e+00
       15269500    6.479824185e-01   -2.530636489e-01    2.141877115e-01    7.334937900e-02    0.000000000e+00    0.000000000e+00    0.000000000e+00    0.000000000e+00
       15519000    6.426708698e-01   -2.534412444e-01    2.172515094e-01    7.071460038e-02    0.000000000e+00    0.000000000e+00    0.000000000e+00    0.000000000e+00
       15768500    6.375045180e-01   -2.540089190e-01    2.204247713e-01    6.794460118e-02    0.000000000e+00    0.000000000e+00    0.000000000e+00    0.000000000e+00
       16018000    6.326237321e-01   -2.547269166e-01    2.236382812e-01    6.524404883e-02    0.000000000e+00    0.000000000e+00    0.000000000e+00    0.000000000e+00
       16267500    6.272880435e-01   -2.555778921e-01    2.268675268e-01    6.223118678e-02    0.000000000e+00    0.000000000e+00    0.000000000e+00    0.000000000e+00
       16517000    6.218423843e-01   -2.554914355e-01    2.297432274e-01    5.917054042e-02    0.000000000e+00    0.000000000e+00    0.000000000e+00    0.000000000e+00
       16766500    6.171013713e-01   -2.561075687e-01    2.328069210e-01    5.606052652e-02    0.000000000e+00    0.000000000e+00    0.000000000e+00    0.000000000e+00
       17016000    6.123939753e-01   -2.569475472e-01    2.357147932e-01    5.288146436e-02    0.000000000e+00    0.000000000e+00    0.000000000e+00    0.000000000e+00
       17265500    6.067994833e-01   -2.568602562e-01    2.383614033e-01    4.942940548e-02    0.000000000e+00    0.000000000e+00    0.000000000e+00    0.000000000e+00
       17515000    6.023936272e-01   -2.570480704e-01    2.413257509e-01    4.639860615e-02    0.000000000e+00    0.000000000e+00    0.000000000e+00    0.000000000e+00
       17764500    5.977285504e-01   -2.575026751e-01    2.439642549e-01    4.315263033e-02    0.000000000e+00    0.000000000e+00    0.000000000e+00    0.000000000e+00
       18014000    5.928218365e-01   -2.579459846e-01    2.464141846e-01    3.970062360e-02    0.000000000e+00    0.000000000e+00    0.000000000e+00    0.000000000e+00
       18263500    5.882297158e-01   -2.574935257e-01    2.485898435e-01    3.647662699e-02    0.000000000e+00    0.000000000e+00    0.000000000e+00    0.000000000e+00
       18513000    5.840107799e-01   -2.576715648e-01    2.509196401e-01    3.341806680e-02    0.000000000e+00    0.000000000e+00    0.000000000e+00    0.000000000e+00
       18762500    5.790825486e-01   -2.572631538e-01    2.530804873e-01    3.011129797e-02    0.000000000e+00    0.000000000e+00    0.000000000e+00    0.000000000e+00
       19012000    5.752807856e-01   -2.568862140e-01    2.549675107e-01    2.731253766e-02    0.000000000e+00    0.000000000e+00    0.000000000e+00    0.000000000e+00
       19261500    5.713636279e-01   -2.568444014e-01    2.567389309e-01    2.438868023e-02    0.000000000e+00    0.000000000e+00    0.000000000e+00    0.000000000e+00
       19511000    5.675070882e-01   -2.562236488e-01    2.585886121e-01    2.187188528e-02    0.000000000e+00    0.000000000e+00    0.000000000e+00    0.000000000e+00
       19760500    5.637282133e-01   -2.552957237e-01    2.600041926e-01    1.929002628e-02    0.000000000e+00    0.000000000e+00    0.000000000e+00    0.000000000e+00
       20010000    5.607792139e-01   -2.547395825e-01    2.614281476e-01    1.713588834e-02    0.000000000e+00    0.000000000e+00    0.000000000e+00    0.000000000e+00
       20259500    5.569542646e-01   -2.537816763e-01    2.626982033e-01    1.471005660e-02    0.000000000e+00    0.000000000e+00    0.000000000e+00    0.000000000e+00
       20509000    5.538337827e-01   -2.527514398e-01    2.640625536e-01    1.242419705e-02    0.000000000e+00    0.000000000e+00    0.000000000e+00    0.000000000e+00
       20758500    5.510513186e-01   -2.520939112e-01    2.654525936e-01    1.008117571e-02    0.000000000e+00    0.000000000e+00    0.000000000e+00    0.000000000e+00
       21008000    5.470750332e-01   -2.510749996e-01    2.664248943e-01    7.710827515e-03    0.000000000e+00    0.000000000e+00    0.000000000e+00    0.000000000e+00
       21257500    5.441085696e-01   -2.495794743e-01    2.676089108e-01    5.407207180e-03    0.000000000e+00    0.000000000e+00    0.000000000e+00    0.000000000e+00
       21507000    5.413759947e-01   -2.489811778e-01    2.689073682e-01    3.070948645e-03    0.000000000e+00    0.000000000e+00    0.000000000e+00    0.000000000e+00
       21756500    5.384987593e-01   -2.477242351e-01    2.698466182e-01    8.792004082e-04    0.000000000e+00    0.000000000e+00    0.000000000e+00    0.000000000e+00
       22006000    5.354873538e-01   -2.466058284e-01    2.708065212e-01   -1.570682623e-03    0.000000000e+00    0.000000000e+00    0.000000000e+00    0.000000000e+00
       22255500    5.328041911e-01   -2.454907447e-01    2.719276845e-01   -3.861965379e-03    0.000000000e+00    0.000000000e+00    0.000000000e+00    0.000000000e+00
       22505000    5.298862457e-01   -2.444031388e-01    2.730442882e-01   -6.424535532e-03    0.000000000e+00    0.000000000e+00    0.000000000e+00    0.000000000e+00
       22754500    5.272208452e-01   -2.435013801e-01    2.738254666e-01   -8.827532642e-03    0.000000000e+00    0.000000000e+00    0.000000000e+00    0.000000000e+00
       23004000    5.241953731e-01   -2.421047986e-01    2.745747268e-01   -1.109454315e-02    0.000000000e+00    0.000000000e+00    0.000000000e+00    0.000000000e+00
       23253500    5.216107965e-01   -2.406343818e-01    2.754608393e-01   -1.343522500e-02    0.000000000e+00    0.000000000e+00    0.000000000e+00    0.000000000e+00
       23503000    5.191116929e-01   -2.397174090e-01    2.763461471e-01   -1.588506624e-02    0.000000000e+00    0.000000000e+00    0.000000000e+00    0.000000000e+00
       23752500    5.164307952e-01   -2.387998849e-01    2.773301601e-01   -1.824295521e-02    0.000000000e+00    0.000000000e+00    0.000000000e+00    0.000000000e+00
       24002000    5.143570304e-01   -2.373386919e-01    2.780089080e-01   -2.049384080e-02    0.000000000e+00    0.000000000e+00    0.000000000e+00    0.000000000e+00
       24251500    5.117574334e-01   -2.360231131e-01    2.785857618e-01   -2.296760678e-02    0.000000000e+00    0.000000000e+00    0.000000000e+00    0.000000000e+00
       24501000    5.091428161e-01   -2.348625660e-01    2.791081369e-01   -2.520337701e-02    0.000000000e+00    0.000000000e+00    0.000000000e+00    0.000000000e+00
       24750500    5.065853596e-01   -2.333168834e-01    2.798312008e-01   -2.761393599e-02    0.000000000e+00    0.000000000e+00    0.000000000e+00    0.000000000e+00
       25000000    5.047305822e-01   -2.321915776e-01    2.806107998e-01   -3.004125506e-02    0.000000000e+00    0.000000000e+00    0.000000000e+00    0.000000000e+00
