# Hz S RI R 50
!     Frequency           S11_Real           S11_Imag           S21_Real           S21_Imag           S12_Real           S12_Imag           S22_Real           S22_Imag
          50000    9.119411707e-01   -4.318829998e-02    9.428476542e-02    2.458271943e-02    0.000000000e+00    0.000000000e+00    0.000000000e+00    0.000000000e+00
         299500    5.771281719e-01   -2.270988226e-01    5.361717939e-01   -3.868990019e-02    0.000000000e+00    0.000000000e+00    0.000000000e+00    0.000000000e+00
         549000    5.959505439e-01    3.079848737e-02    4.962832332e-01   -1.987421811e-01    0.000000000e+00    0.000000000e+00    0.000000000e+00    0.000000000e+00
         798500    6.183598042e-01    5.929867923e-02    4.254782498e-01   -2.279665321e-01    0.000000000e+00    0.000000000e+00    0.000000000e+00    0.000000000e+00
        1048000    6.316815019e-01    6.340991706e-02    3.937458396e-01   -2.304245830e-01    0.000000000e+00    0.000000000e+00    0.000000000e+00    0.000000000e+00
        1297500    6.393802762e-01    6.222414970e-02    3.735375404e-01   -2.293938249e-01    0.000000000e+00    0.000000000e+00    0.000000000e+00    0.000000000e+00
        1547000    6.470092535e-01    5.908455700e-02    3.581922650e-01   -2.267791033e-01    0.000000000e+00    0.000000000e+00    0.000000000e+00    0.000000000e+00
        1796500    6.557310224e-01    5.465538427e-02    3.446964324e-01   -2.230513543e-01    0.000000000e+00    0.000000000e+00    0.000000000e+00    0.000000000e+00
        2046000    6.639694571e-01    4.970130324e-02    3.326812387e-01   -2.181129009e-01    0.000000000e+00    0.000000000e+00    0.000000000e+00    0.000000000e+00
        2295500    6.726988554e-01    4.427920282e-02    3.220221996e-01   -2.124695182e-01    0.000000000e+00    0.000000000e+00    0.000000000e+00    0.000000000e+00
        2545000    6.800543070e-01    3.875377774e-02    3.118637204e-01   -2.058987468e-01    0.000000000e+00    0.000000000e+00    0.000000000e+00    0.000000000e+00
        2794500    6.885856986e-01    3.402092680e-02    3.027731478e-01   -1.989586055e-01    0.000000000e+00    0.000000000e+00    0.000000000e+00    0.000000000e+00
        3044000    6.970872879e-01    2.889426239e-02    2.944706380e-01   -1.917697191e-01    0.000000000e+00    0.000000000e+00    0.000000000e+00    0.000000000e+00
        3293500    7.036163807e-01    2.508177236e-02    2.862707973e-01   -1.838381141e-01    0.000000000e+00    0.000000000e+00    0.000000000e+00    0.000000000e+00
        3543000    7.112898231e-01    2.112477086e-02    2.788424194e-01   -1.764823496e-01    0.000000000e+00    0.000000000e+00    0.000000000e+00    0.000000000e+00
        3792500    7.184879184e-01    1.745470986e-02    2.718876600e-01   -1.687898785e-01    0.000000000e+00    0.000000000e+00    0.000000000e+00    0.000000000e+00
        4042000    7.270553708e-01    1.403728034e-02    2.652110159e-01   -1.609708220e-01    0.000000000e+00    0.000000000e+00    0.000000000e+00    0.000000000e+00
        4291500    7.336134315e-01    1.216177456e-02    2.588997185e-01   -1.530451626e-01    0.000000000e+00    0.000000000e+00    0.000000000e+00    0.000000000e+00
        4541000    7.407999635e-01    1.038026065e-02    2.529276311e-01   -1.450916827e-01    0.000000000e+00    0.000000000e+00    0.000000000e+00    0.000000000e+00
        4790500    7.464106083e-01    8.436067961e-03    2.467871904e-01   -1.370056123e-01    0.000000000e+00    0.000000000e+00    0.000000000e+00    0.000000000e+00
        5040000    7.540554404e-01    7.228202187e-03    2.413775027e-01   -1.294829994e-01    0.000000000e+00    0.000000000e+00    0.000000000e+00    0.000000000e+00
        5289500    7.593286037e-01    5.363723263e-03    2.357041836e-01   -1.216052026e-01    0.000000000e+00    0.000000000e+00    0.000000000e+00    0.000000000e+00
        5539000    7.653042078e-01    4.705226049e-03    2.305508405e-01   -1.140653044e-01    0.000000000e+00    0.000000000e+00    0.000000000e+00    0.000000000e+00
        5788500    7.708884478e-01    3.914937377e-03    2.256506383e-01   -1.064167693e-01    0.000000000e+00    0.000000000e+00    0.000000000e+00    0.000000000e+00
        6038000    7.759080529e-01    2.804284450e-03    2.205348462e-01   -9.891079366e-02    0.000000000e+00    0.000000000e+00    0.000000000e+00    0.000000000e+00
        6287500    7.807537317e-01    2.065781038e-03    2.160661072e-01   -9.155726433e-02    0.000000000e+00    0.000000000e+00    0.000000000e+00    0.000000000e+00
        6537000    7.848094106e-01    2.214262262e-03    2.115890086e-01   -8.427613229e-02    0.000000000e+00    0.000000000e+00    0.000000000e+00    0.000000000e+00
        6786500    7.885815501e-01    2.134347567e-03    2.074282914e-01   -7.728630304e-02    0.000000000e+00    0.000000000e+00    0.000000000e+00    0.000000000e+00
        7036000    7.930861712e-01    1.936559216e-03    2.033403367e-01   -7.047316432e-02    0.000000000e+00    0.000000000e+00    0.000000000e+00    0.000000000e+00
        7285500    7.970666885e-01    2.537345979e-03    1.995526701e-01   -6.377501786e-02    0.000000000e+00    0.000000000e+00    0.000000000e+00    0.000000000e+00
        7535000    8.006843925e-01    2.389947884e-03    1.958607137e-01   -5.738821253e-02    0.000000000e+00    0.000000000e+00    0.000000000e+00    0.000000000e+00
        7784500    8.037783504e-01    2.271779813e-03    1.924088299e-01   -5.125683546e-02    0.000000000e+00    0.000000000e+00    0.000000000e+00    0.000000000e+00
        8034000    8.066785932e-01    2.233148320e-03    1.891296208e-01   -4.543641582e-02    0.000000000e+00    0.000000000e+00    0.000000000e+00    0.000000000e+00
        8283500    8.099686503e-01    2.384606982e-03    1.861225069e-01   -3.972621635e-02    0.000000000e+00    0.000000000e+00    0.000000000e+00    0.000000000e+00
        8533000    8.119591475e-01    2.424771665e-03    1.834033579e-01   -3.449135274e-02    0.000000000e+00    0.000000000e+00    0.000000000e+00    0.000000000e+00
        8782500    8.144363165e-01    2.615251346e-03    1.807359904e-01   -2.955070697e-02    0.000000000e+00    0.000000000e+00    0.000000000e+00    0.000000000e+00
        9032000    8.165085912e-01    2.555434126e-03    1.783889383e-01   -2.502246574e-02    0.000000000e+00    0.000000000e+00    0.000000000e+00    0.000000000e+00
        9281500    8.182212710e-01    2.583634574e-03    1.763550043e-01   -2.082453109e-02    0.000000000e+00    0.000000000e+00    0.000000000e+00    0.000000000e+00
        9531000    8.206861019e-01    2.458505332e-03    1.745373309e-01   -1.709621586e-02    0.000000000e+00    0.000000000e+00    0.000000000e+00    0.000000000e+00
        9780500    8.221081495e-01    2.251617610e-03    1.728296578e-01   -1.375836693e-02    0.000000000e+00    0.000000000e+00    0.000000000e+00    0.000000000e+00
       10030000    8.233587742e-01    1.641063718e-03    1.712834835e-01   -1.087223180e-02    0.000000000e+00    0.000000000e+00    0.000000000e+00    0.000000000e+00
       10279500    8.243472576e-01    1.496609184e-03    1.701119244e-01   -8.397312835e-03    0.000000000e+00    0.000000000e+00    0.000000000e+00    0.000000000e+00
       10529000    8.251302242e-01    1.275160350e-03    1.689072251e-01   -6.109032780e-03    0.000000000e+00    0.000000000e+00    0.000000000e+00    0.000000000e+00
       10778500    8.260320425e-01    1.028577564e-03    1.679589748e-01   -4.186904989e-03    0.000000000e+00    0.000000000e+00    0.000000000e+00    0.000000000e+00
       11028000    8.265315294e-01    8.507836028e-04    1.670054048e-01   -2.589683980e-03    0.000000000e+00    0.000000000e+00    0.000000000e+00    0.000000000e+00
       11277500    8.276019096e-01    9.419575799e-04    1.663295031e-01   -1.078814734e-03    0.000000000e+00    0.000000000e+00    0.000000000e+00    0.000000000e+00
       11527000    8.282340169e-01    4.235319502e-04    1.658518761e-01   -5.980407150e-05    0.000000000e+00    0.000000000e+00    0.000000000e+00    0.000000000e+00
       11776500    8.295071125e-01   -5.796156620e-05    1.655347049e-01    7.387587102e-04    0.000000000e+00    0.000000000e+00    0.000000000e+00    0.000000000e+00
       12026000    8.289933801e-01   -1.738791470e-04    1.650225371e-01    1.469417941e-03    0.000000000e+00    0.000000000e+00    0.000000000e+00    0.000000000e+00
       12275500    8.298118114e-01   -5.215553101e-04    1.647260338e-01    1.910116291e-03    0.000000000e+00    0.000000000e+00    0.000000000e+00    0.000000000e+00
       12525000    8.294973373e-01   -8.244383498e-04    1.645405740e-01    2.080856822e-03    0.000000000e+00    0.000000000e+00    0.000000000e+00    0.000000000e+00
       12774500    8.291637897e-01   -1.062856521e-03    1.643619239e-01    2.251479775e-03    0.000000000e+00    0.000000000e+00    0.000000000e+00    0.000000000e+00
       13024000    8.298784494e-01   -7.511627045e-04    1.644888520e-01    1.993738580e-03    0.000000000e+00    0.000000000e+00    0.000000000e+00    0.000000000e+00
       13273500    8.296114206e-01   -9.893681854e-04    1.644270122e-01    1.687333686e-03    0.000000000e+00    0.000000000e+00    0.000000000e+00    0.000000000e+00
       13523000    8.299298882e-01   -1.357519766e-03    1.644873023e-01    1.055080793e-03    0.000000000e+00    0.000000000e+00    0.000000000e+00    0.000000000e+00
       13772500    8.296247721e-01   -1.974797575e-03    1.646558791e-01    4.274906532e-04    0.000000000e+00    0.000000000e+00    0.000000000e+00    0.000000000e+00
       14022000    8.294139504e-01   -2.306378679e-03    1.646931320e-01   -3.184033267e-04    0.000000000e+00    0.000000000e+00    0.000000000e+00    0.000000000e+00
       14271500    8.296703100e-01   -2.625170397e-03    1.650555134e-01   -1.259970362e-03    0.000000000e+00    0.000000000e+00    0.000000000e+00    0.000000000e+00
       14521000    8.287724257e-01   -2.452016575e-03    1.652339548e-01   -2.296159044e-03    0.000000000e+00    0.000000000e+00    0.000000000e+00    0.000000000e+00
       14770500    8.286184072e-01   -2.830569167e-03    1.654465199e-01   -3.436450614e-03    0.000000000e+00    0.000000000e+00    0.000000000e+00    0.000000000e+00
       15020000    8.282882571e-01   -2.808809048e-03    1.657800823e-01   -4.626955371e-03    0.000000000e+00    0.000000000e+00    0.000000000e+00    0.000000000e+00
       15269500    8.282225728e-01   -3.436784726e-03    1.660022587e-01   -6.039896514e-03    0.000000000e+00    0.000000000e+00    0.000000000e+00    0.000000000e+00
       15519000    8.279561400e-01   -3.721311223e-03    1.662745774e-01   -7.453839760e-03    0.000000000e+00    0.000000000e+00    0.000000000e+00    0.000000000e+00
       15768500    8.279670477e-01   -4.222304560e-03    1.668499857e-01   -8.898649365e-03    0.000000000e+00    0.000000000e+00    0.000000000e+00    0.000000000e+00
       16018000    8.268172145e-01   -4.439514130e-03    1.667001843e-01   -1.031646505e-02    0.000000000e+00    0.000000000e+00    0.000000000e+00    0.000000000e+00
       16267500    8.267839551e-01   -4.561108537e-03    1.669895202e-01   -1.183181256e-02    0.000000000e+00    0.000000000e+00    0.000000000e+00    0.000000000e+00
       16517000    8.264728785e-01   -5.276884884e-03    1.673239172e-01   -1.339968201e-02    0.000000000e+00    0.000000000e+00    0.000000000e+00    0.000000000e+00
       16766500    8.258911967e-01   -5.654755514e-03    1.675183922e-01   -1.493160799e-02    0.000000000e+00    0.000000000e+00    0.000000000e+00    0.000000000e+00
       17016000    8.253566623e-01   -5.669050384e-03    1.678540558e-01   -1.638315618e-02    0.000000000e+00    0.000000000e+00    0.000000000e+00    0.000000000e+00
       17265500    8.247510791e-01   -6.109174341e-03    1.679819375e-01   -1.794787869e-02    0.000000000e+00    0.000000000e+00    0.000000000e+00    0.000000000e+00
       17515000    8.243593574e-01   -6.819028873e-03    1.681009829e-01   -1.941862702e-02    0.000000000e+00    0.000000000e+00    0.000000000e+00    0.000000000e+00
       17764500    8.237750530e-01   -7.348977029e-03    1.682412475e-01   -2.089324035e-02    0.000000000e+00    0.000000000e+00    0.000000000e+00    0.000000000e+00
       18014000    8.239893913e-01   -7.349590771e-03    1.684432775e-01   -2.217213064e-02    0.000000000e+00    0.000000000e+00    0.000000000e+00    0.000000000e+00
       18263500    8.236936927e-01   -7.453971542e-03    1.685840338e-01   -2.346405387e-02    0.000000000e+00    0.000000000e+00    0.000000000e+00    0.000000000e+00
       18513000    8.240812421e-01   -7.792376447e-03    1.686851084e-01   -2.469840087e-02    0.000000000e+00    0.000000000e+00    0.000000000e+00    0.000000000e+00
       18762500    8.233585954e-01   -8.902165107e-03    1.686800122e-01   -2.587176673e-02    0.000000000e+00    0.000000000e+00    0.000000000e+00    0.000000000e+00
       19012000    8.231164217e-01   -8.904384449e-03    1.687001735e-01   -2.679186128e-02    0.000000000e+00    0.000000000e+00    0.000000000e+00    0.000000000e+00
       19261500    8.228514194e-01   -9.312338196e-03    1.686583161e-01   -2.772728540e-02    0.000000000e+00    0.000000000e+00    0.000000000e+00    0.000000000e+00
       19511000    8.218187094e-01   -9.922338650e-03    1.685158759e-01   -2.848387882e-02    0.000000000e+00    0.000000000e+00    0.000000000e+00    0.000000000e+00
       19760500    8.222754598e-01   -1.021325309e-02    1.684496701e-01   -2.906721644e-02    0.000000000e+00    0.000000000e+00    0.000000000e+00    0.000000000e+00
       20010000    8.223994374e-01   -1.001012418e-02    1.684924513e-01   -2.938439324e-02    0.000000000e+00    0.000000000e+00    0.000000000e+00    0.000000000e+00
       20259500    8.227071762e-01   -1.026160177e-02    1.683157384e-01   -2.983238921e-02    0.000000000e+00    0.000000000e+00    0.000000000e+00    0.000000000e+00
       20509000    8.223077655e-01   -1.099481899e-02    1.681268960e-01   -3.040832467e-02    0.000000000e+00    0.000000000e+00    0.000000000e+00    0.000000000e+00
       20758500    8.223173022e-01   -1.135986391e-02    1.679657251e-01   -3.079475090e-02    0.000000000e+00    0.000000000e+00    0.000000000e+00    0.000000000e+00
       21008000    8.227840066e-01   -1.168683171e-02    1.679163873e-01   -3.113897704e-02    0.000000000e+00    0.000000000e+00    0.000000000e+00    0.000000000e+00
       21257500    8.222051263e-01   -1.197070163e-02    1.676928103e-01   -3.159344196e-02    0.000000000e+00    0.000000000e+00    0.000000000e+00    0.000000000e+00
       21507000    8.224025369e-01   -1.254134718e-02    1.675704569e-01   -3.192995116e-02    0.000000000e+00    0.000000000e+00    0.000000000e+00    0.000000000e+00
       21756500    8.220646381e-01   -1.298327278e-02    1.674326956e-01   -3.234871849e-02    0.000000000e+00    0.000000000e+00    0.000000000e+00    0.000000000e+00
       22006000    8.220212460e-01   -1.279427391e-02    1.673150659e-01   -3.272322565e-02    0.000000000e+00    0.000000000e+00    0.000000000e+00    0.000000000e+00
       22255500    8.217536807e-01   -1.314169075e-02    1.671987623e-01   -3.315144405e-02    0.000000000e+00    0.000000000e+00    0.000000000e+00    0.000000000e+00
       22505000    8.224844933e-01   -1.353411097e-02    1.671398431e-01   -3.370246291e-02    0.000000000e+00    0.000000000e+00    0.000000000e+00    0.000000000e+00
       22754500    8.226328492e-01   -1.363084279e-02    1.671166420e-01   -3.408627957e-02    0.000000000e+00    0.000000000e+00    0.000000000e+00    0.000000000e+00
       23004000    8.223992586e-01   -1.430353615e-02    1.668187380e-01   -3.444619477e-02    0.000000000e+00    0.000000000e+00    0.000000000e+00    0.000000000e+00
       23253500    8.229522109e-01   -1.433414221e-02    1.668132246e-01   -3.482564166e-02    0.000000000e+00    0.000000000e+00    0.000000000e+00    0.000000000e+00
       23503000    8.227457404e-01   -1.492801774e-02    1.666806340e-01   -3.522414342e-02    0.000000000e+00    0.000000000e+00    0.000000000e+00    0.000000000e+00
       23752500    8.222114444e-01   -1.504870318e-02    1.665278375e-01   -3.554437682e-02    0.000000000e+00    0.000000000e+00    0.000000000e+00    0.000000000e+00
       24002000    8.219127059e-01   -1.488741022e-02    1.663842648e-01   -3.593081608e-02    0.000000000e+00    0.000000000e+00    0.000000000e+00    0.000000000e+00
       24251500    8.222915530e-01   -1.542028971e-02    1.663342267e-01   -3.638041019e-02    0.000000000e+00    0.000000000e+00    0.000000000e+00    0.000000000e+00
       24501000    8.220307231e-01   -1.547469571e-02    1.661125422e-01   -3.675409406e-02    0.000000000e+00    0.000000000e+00    0.000000000e+00    0.000000000e+00
       24750500    8.225124478e-01   -1.611273922e-02    1.659935564e-01   -3.713893518e-02    0.000000000e+00    0.000000000e+00    0.000000000e+00    0.000000000e+00
       25000000    8.225154281e-01   -1.653788611e-02    1.657854617e-01   -3.746681288e-02    0.000000000e+00    0.000000000e+00    0.000000000e+00    0.000000000e+00
