# Hz S RI R 50
!     Frequency           S11_Real           S11_Imag           S21_Real           S21_Imag           S12_Real           S12_Imag           S22_Real           S22_Imag
          50000    9.142093658e-01   -4.407733306e-02    9.457270056e-02    2.520082146e-02    0.000000000e+00    0.000000000e+00    0.000000000e+00    0.000000000e+00
       10049500    8.297752738e-01   -1.642047241e-02    1.710096449e-01   -1.058646385e-02    0.000000000e+00    0.000000000e+00    0.000000000e+00    0.000000000e+00
       20049000    8.285775781e-01   -2.931927145e-02    1.683403701e-01   -2.954295836e-02    0.000000000e+00    0.000000000e+00    0.000000000e+00    0.000000000e+00
       30048500    8.274626732e-01   -4.160181433e-02    1.623924077e-01   -4.490108043e-02    0.000000000e+00    0.000000000e+00    0.000000000e+00    0.000000000e+00
       40048000    8.263302445e-01   -5.505335703e-02    1.551023573e-01   -5.844953284e-02    0.000000000e+00    0.000000000e+00    0.000000000e+00    0.000000000e+00
       50047500    8.249525428e-01   -6.674772501e-02    1.467609406e-01   -6.985116750e-02    0.000000000e+00    0.000000000e+00    0.000000000e+00    0.000000000e+00
       60047000    8.242505193e-01   -7.878015190e-02    1.381508857e-01   -7.968313247e-02    0.000000000e+00    0.000000000e+00    0.000000000e+00    0.000000000e+00
       70046500    8.230721354e-01   -9.211064130e-02    1.294564307e-01   -8.809910715e-02    0.000000000e+00    0.000000000e+00    0.000000000e+00    0.000000000e+00
       80046000    8.210293055e-01   -1.032747328e-01    1.211541295e-01   -9.532462806e-02    0.000000000e+00    0.000000000e+00    0.000000000e+00    0.000000000e+00
       90045500    8.229411244e-01   -1.152933389e-01    1.133702770e-01   -1.019515097e-01    0.000000000e+00    0.000000000e+00    0.000000000e+00    0.000000000e+00
      100045000    8.204225898e-01   -1.265528202e-01    1.005009115e-01   -1.072695553e-01    0.000000000e+00    0.000000000e+00    0.000000000e+00    0.000000000e+00
      110044500    8.161358237e-01   -1.385506988e-01    9.327773005e-02   -1.118625104e-01    0.000000000e+00    0.000000000e+00    0.000000000e+00    0.000000000e+00
      120044000    8.142434955e-01   -1.498809457e-01    8.656311780e-02   -1.165938526e-01    0.000000000e+00    0.000000000e+00    0.000000000e+00    0.000000000e+00
      130043500    8.127564788e-01   -1.614605188e-01    7.991435379e-02   -1.218325049e-01    0.000000000e+00    0.000000000e+00    0.000000000e+00    0.000000000e+00
      140043000    8.100359440e-01   -1.727356315e-01    7.284484059e-02   -1.275183260e-01    0.000000000e+00    0.000000000e+00    0.000000000e+00    0.000000000e+00
      150042500    8.072423339e-01   -1.843621433e-01    6.521951407e-02   -1.336230487e-01    0.000000000e+00    0.000000000e+00    0.000000000e+00    0.000000000e+00
      160042000    8.053610325e-01   -1.957151741e-01    5.648401007e-02   -1.400625855e-01    0.000000000e+00    0.000000000e+00    0.000000000e+00    0.000000000e+00
      170041500    8.020553589e-01   -2.073746026e-01    4.647139460e-02   -1.463600248e-01    0.000000000e+00    0.000000000e+00    0.000000000e+00    0.000000000e+00
      180041000    7.983984351e-01   -2.186395675e-01    3.511352837e-02   -1.521210819e-01    0.000000000e+00    0.000000000e+00    0.000000000e+00    0.000000000e+00
      190040500    7.954713702e-01   -2.299843580e-01    2.221954241e-02   -1.572605819e-01    0.000000000e+00    0.000000000e+00    0.000000000e+00    0.000000000e+00
      200040000    7.917831540e-01   -2.416749150e-01    7.716487627e-03   -1.608194262e-01    0.000000000e+00    0.000000000e+00    0.000000000e+00    0.000000000e+00
      210039500    7.876918912e-01   -2.533344328e-01   -7.812050637e-03   -1.628464907e-01    0.000000000e+00    0.000000000e+00    0.000000000e+00    0.000000000e+00
      220039000    7.836480141e-01   -2.649163604e-01   -2.438764274e-02   -1.626357734e-01    0.000000000e+00    0.000000000e+00    0.000000000e+00    0.000000000e+00
      230038500    7.796375155e-01   -2.763335109e-01   -4.127608612e-02   -1.600093842e-01    0.000000000e+00    0.000000000e+00    0.000000000e+00    0.000000000e+00
      240038000    7.748396993e-01   -2.884363532e-01   -5.830042437e-02   -1.549605131e-01    0.000000000e+00    0.000000000e+00    0.000000000e+00    0.000000000e+00
      250037500    7.707908154e-01   -3.000967205e-01   -7.477683574e-02   -1.472082287e-01    0.000000000e+00    0.000000000e+00    0.000000000e+00    0.000000000e+00
      260037000    7.660412192e-01   -3.118174970e-01   -9.022372216e-02   -1.368780732e-01    0.000000000e+00    0.000000000e+00    0.000000000e+00    0.000000000e+00
      270036500    7.609530687e-01   -3.237524629e-01   -1.041624993e-01   -1.240848824e-01    0.000000000e+00    0.000000000e+00    0.000000000e+00    0.000000000e+00
      280036000    7.561916113e-01   -3.359683156e-01   -1.160322428e-01   -1.090860665e-01    0.000000000e+00    0.000000000e+00    0.000000000e+00    0.000000000e+00
      290035500    7.502753735e-01   -3.477951586e-01   -1.252570897e-01   -9.216065705e-02    0.000000000e+00    0.000000000e+00    0.000000000e+00    0.000000000e+00
      300035000    7.451428771e-01   -3.591221273e-01   -1.313850731e-01   -7.402007282e-02    0.000000000e+00    0.000000000e+00    0.000000000e+00    0.000000000e+00
      310034500    7.393531203e-01   -3.713026941e-01   -1.340945512e-01   -5.528059974e-02    0.000000000e+00    0.000000000e+00    0.000000000e+00    0.000000000e+00
      320034000    7.331110835e-01   -3.825909495e-01   -1.331837028e-01   -3.703535348e-02    0.000000000e+00    0.000000000e+00    0.000000000e+00    0.000000000e+00
      330033500    7.265461087e-01   -3.937068582e-01   -1.291748732e-01   -2.026463859e-02    0.000000000e+00    0.000000000e+00    0.000000000e+00    0.000000000e+00
      340033000    7.202321887e-01   -4.043853283e-01   -1.225476265e-01   -5.440718029e-03    0.000000000e+00    0.000000000e+00    0.000000000e+00    0.000000000e+00
      350032500    7.135688066e-01   -4.142978489e-01   -1.140952781e-01    6.776931230e-03    0.000000000e+00    0.000000000e+00    0.000000000e+00    0.000000000e+00
      360032000    7.065402865e-01   -4.247266650e-01   -1.053714231e-01    8.762102574e-03    0.000000000e+00    0.000000000e+00    0.000000000e+00    0.000000000e+00
      370031500    6.993646026e-01   -4.340121150e-01   -9.649595618e-02    1.657648943e-02    0.000000000e+00    0.000000000e+00    0.000000000e+00    0.000000000e+00
      380031000    6.920984983e-01   -4.436904490e-01   -8.785298467e-02    2.243512124e-02    0.000000000e+00    0.000000000e+00    0.000000000e+00    0.000000000e+00
      390030500    6.862225533e-01   -4.530628920e-01   -7.975499332e-02    2.663848177e-02    0.000000000e+00    0.000000000e+00    0.000000000e+00    0.000000000e+00
      400030000    6.781737208e-01   -4.615593553e-01   -7.190333307e-02    2.964377962e-02    0.000000000e+00    0.000000000e+00    0.000000000e+00    0.000000000e+00
      410029500    6.714375019e-01   -4.697793424e-01   -6.482829899e-02    3.166515008e-02    0.000000000e+00    0.000000000e+00    0.000000000e+00    0.000000000e+00
      420029000    6.654340625e-01   -4.779076874e-01   -5.849596858e-02    3.292502835e-02    0.000000000e+00    0.000000000e+00    0.000000000e+00    0.000000000e+00
      430028500    6.584630013e-01   -4.857594669e-01   -5.252028257e-02    3.358240798e-02    0.000000000e+00    0.000000000e+00    0.000000000e+00    0.000000000e+00
      440028000    6.513398290e-01   -4.947945178e-01   -4.699379578e-02    3.377375379e-02    0.000000000e+00    0.000000000e+00    0.000000000e+00    0.000000000e+00
      450027500    6.441034675e-01   -5.025451183e-01   -4.195589572e-02    3.360752016e-02    0.000000000e+00    0.000000000e+00    0.000000000e+00    0.000000000e+00
      460027000    6.365969777e-01   -5.107462406e-01   -3.740188107e-02    3.308492154e-02    0.000000000e+00    0.000000000e+00    0.000000000e+00    0.000000000e+00
      470026500    6.285278201e-01   -5.197246671e-01   -3.321663290e-02    3.214762360e-02    0.000000000e+00    0.000000000e+00    0.000000000e+00    0.000000000e+00
      480026000    6.203216910e-01   -5.282670259e-01   -2.938742377e-02    3.098411113e-02    0.000000000e+00    0.000000000e+00    0.000000000e+00    0.000000000e+00
      490025500    6.136010289e-01   -5.363374949e-01   -2.604512125e-02    2.952473983e-02    0.000000000e+00    0.000000000e+00    0.000000000e+00    0.000000000e+00
      500025000    6.051480770e-01   -5.437747240e-01   -2.316661365e-02    2.789349109e-02    0.000000000e+00    0.000000000e+00    0.000000000e+00    0.000000000e+00
      510024500    5.973083377e-01   -5.511904955e-01   -2.075070329e-02    2.608895302e-02    0.000000000e+00    0.000000000e+00    0.000000000e+00    0.000000000e+00
      520024000    5.884227753e-01   -5.595571995e-01   -1.866454817e-02    2.424313128e-02    0.000000000e+00    0.000000000e+00    0.000000000e+00    0.000000000e+00
      530023500    5.801498294e-01   -5.669259429e-01   -1.701614819e-02    2.247229591e-02    0.000000000e+00    0.000000000e+00    0.000000000e+00    0.000000000e+00
      540023000    5.710747838e-01   -5.746198893e-01   -1.571161300e-02    2.067245170e-02    0.000000000e+00    0.000000000e+00    0.000000000e+00    0.000000000e+00
      550022500    5.622857809e-01   -5.830152631e-01   -1.468216535e-02    1.897560060e-02    0.000000000e+00    0.000000000e+00    0.000000000e+00    0.000000000e+00
      560022000    5.533350110e-01   -5.901687741e-01   -1.396150235e-02    1.738202758e-02    0.000000000e+00    0.000000000e+00    0.000000000e+00    0.000000000e+00
      570021500    5.438543558e-01   -5.980346203e-01   -1.343647670e-02    1.583121158e-02    0.000000000e+00    0.000000000e+00    0.000000000e+00    0.000000000e+00
      580021000    5.351387262e-01   -6.050620675e-01   -1.314853691e-02    1.447604224e-02    0.000000000e+00    0.000000000e+00    0.000000000e+00    0.000000000e+00
      590020500    5.258392096e-01   -6.116030812e-01   -1.298156101e-02    1.316853985e-02    0.000000000e+00    0.000000000e+00    0.000000000e+00    0.000000000e+00
      600020000    5.173776150e-01   -6.187552810e-01   -1.295651589e-02    1.201854926e-02    0.000000000e+00    0.000000000e+00    0.000000000e+00    0.000000000e+00
      610019500    5.081877708e-01   -6.252438426e-01   -1.317002997e-02    1.092543546e-02    0.000000000e+00    0.000000000e+00    0.000000000e+00    0.000000000e+00
      620019000    4.985199869e-01   -6.315109134e-01   -1.342188474e-02    9.988976642e-03    0.000000000e+00    0.000000000e+00    0.000000000e+00    0.000000000e+00
      630018500    4.899988174e-01   -6.376997232e-01   -1.382666267e-02    9.193854406e-03    0.000000000e+00    0.000000000e+00    0.000000000e+00    0.000000000e+00
      640018000    4.810657203e-01   -6.437873840e-01   -1.428322401e-02    8.411997929e-03    0.000000000e+00    0.000000000e+00    0.000000000e+00    0.000000000e+00
      650017500    4.717600346e-01   -6.504406333e-01   -1.480197720e-02    7.739794906e-03    0.000000000e+00    0.000000000e+00    0.000000000e+00    0.000000000e+00
      660017000    4.635033607e-01   -6.565115452e-01   -1.541468687e-02    7.255779579e-03    0.000000000e+00    0.000000000e+00    0.000000000e+00    0.000000000e+00
      670016500    4.550978243e-01   -6.617301702e-01   -1.615312882e-02    6.801869255e-03    0.000000000e+00    0.000000000e+00    0.000000000e+00    0.000000000e+00
      680016000    4.456488788e-01   -6.679381728e-01   -1.694407128e-02    6.538545713e-03    0.000000000e+00    0.000000000e+00    0.000000000e+00    0.000000000e+00
      690015500    4.374437034e-01   -6.729610562e-01   -1.775926910e-02    6.275673397e-03    0.000000000e+00    0.000000000e+00    0.000000000e+00    0.000000000e+00
      700015000    4.269649088e-01   -6.787548661e-01   -1.865186915e-02    6.226210855e-03    0.000000000e+00    0.000000000e+00    0.000000000e+00    0.000000000e+00
      710014500    4.181399345e-01   -6.847506762e-01   -1.952748559e-02    6.231015082e-03    0.000000000e+00    0.000000000e+00    0.000000000e+00    0.000000000e+00
      720014000    4.099335968e-01   -6.897825599e-01   -2.050724253e-02    6.394727156e-03    0.000000000e+00    0.000000000e+00    0.000000000e+00    0.000000000e+00
      730013500    4.014870524e-01   -6.950829029e-01   -2.153350599e-02    6.654912140e-03    0.000000000e+00    0.000000000e+00    0.000000000e+00    0.000000000e+00
      740013000    3.919482827e-01   -6.999086738e-01   -2.243404277e-02    6.968246773e-03    0.000000000e+00    0.000000000e+00    0.000000000e+00    0.000000000e+00
      750012500    3.844877183e-01   -7.051451206e-01   -2.338589169e-02    7.310875691e-03    0.000000000e+00    0.000000000e+00    0.000000000e+00    0.000000000e+00
      760012000    3.743617833e-01   -7.099184394e-01   -2.435434237e-02    7.693564985e-03    0.000000000e+00    0.000000000e+00    0.000000000e+00    0.000000000e+00
      770011500    3.645179272e-01   -7.140476704e-01   -2.545601316e-02    8.096401580e-03    0.000000000e+00    0.000000000e+00    0.000000000e+00    0.000000000e+00
      780011000    3.534525633e-01   -7.194033861e-01   -2.673920989e-02    8.616075851e-03    0.000000000e+00    0.000000000e+00    0.000000000e+00    0.000000000e+00
      790010500    3.443837166e-01   -7.225875854e-01   -2.810490131e-02    9.123907425e-03    0.000000000e+00    0.000000000e+00    0.000000000e+00    0.000000000e+00
      800010000    3.344507217e-01   -7.270589471e-01   -2.951367386e-02    9.943576530e-03    0.000000000e+00    0.000000000e+00    0.000000000e+00    0.000000000e+00
      810009500    3.223238587e-01   -7.311426401e-01   -3.109865822e-02    1.071696263e-02    0.000000000e+00    0.000000000e+00    0.000000000e+00    0.000000000e+00
      820009000    3.125063777e-01   -7.346498966e-01   -3.290662169e-02    1.169993356e-02    0.000000000e+00    0.000000000e+00    0.000000000e+00    0.000000000e+00
      830008500    3.019501567e-01   -7.384325862e-01   -3.496252000e-02    1.297902316e-02    0.000000000e+00    0.000000000e+00    0.000000000e+00    0.000000000e+00
      840008000    2.904350758e-01   -7.415727973e-01   -3.704651073e-02    1.447384432e-02    0.000000000e+00    0.000000000e+00    0.000000000e+00    0.000000000e+00
      850007500    2.803980112e-01   -7.453124523e-01   -3.931242600e-02    1.630837657e-02    0.000000000e+00    0.000000000e+00    0.000000000e+00    0.000000000e+00
      860007000    2.696445882e-01   -7.473284602e-01   -4.183306918e-02    1.860588975e-02    0.000000000e+00    0.000000000e+00    0.000000000e+00    0.000000000e+00
      870006500    2.594669759e-01   -7.501032948e-01   -4.445798695e-02    2.144909464e-02    0.000000000e+00    0.000000000e+00    0.000000000e+00    0.000000000e+00
      880006000    2.496492714e-01   -7.532674670e-01   -4.715394601e-02    2.486582287e-02    0.000000000e+00    0.000000000e+00    0.000000000e+00    0.000000000e+00
      890005500    2.408059835e-01   -7.562868595e-01   -4.988039285e-02    2.903138287e-02    0.000000000e+00    0.000000000e+00    0.000000000e+00    0.000000000e+00
      900005000    2.312707305e-01   -7.590092421e-01   -5.234330148e-02    3.400531039e-02    0.000000000e+00    0.000000000e+00    0.000000000e+00    0.000000000e+00
      910004500    2.216124237e-01   -7.619636655e-01   -5.447895825e-02    3.984635696e-02    0.000000000e+00    0.000000000e+00    0.000000000e+00    0.000000000e+00
      920004000    2.124252170e-01   -7.642705441e-01   -5.614399537e-02    4.640872777e-02    0.000000000e+00    0.000000000e+00    0.000000000e+00    0.000000000e+00
      930003500    2.024640888e-01   -7.666916847e-01   -5.711849779e-02    5.404602736e-02    0.000000000e+00    0.000000000e+00    0.000000000e+00    0.000000000e+00
      940003000    1.946115494e-01   -7.688223124e-01   -5.719273537e-02    6.211651117e-02    0.000000000e+00    0.000000000e+00    0.000000000e+00    0.000000000e+00
      950002500    1.853716671e-01   -7.717776895e-01   -5.624991655e-02    7.093986869e-02    0.000000000e+00    0.000000000e+00    0.000000000e+00    0.000000000e+00
      960002000    1.779161692e-01   -7.729901075e-01   -5.408356711e-02    8.013831824e-02    0.000000000e+00    0.000000000e+00    0.000000000e+00    0.000000000e+00
      970001500    1.700883210e-01   -7.768667340e-01   -5.070511624e-02    8.998443186e-02    0.000000000e+00    0.000000000e+00    0.000000000e+00    0.000000000e+00
      980001000    1.634468138e-01   -7.780082226e-01   -4.593209922e-02    9.959791601e-02    0.000000000e+00    0.000000000e+00    0.000000000e+00    0.000000000e+00
      990000500    1.557566077e-01   -7.814322710e-01   -3.963690624e-02    1.094317883e-01    0.000000000e+00    0.000000000e+00    0.000000000e+00    0.000000000e+00
     1000000000   -1.039267518e-02   -7.933320403e-01   -1.194002572e-02    1.223889813e-01    0.000000000e+00    0.000000000e+00    0.000000000e+00    0.000000000e+00
