# Hz S RI R 50
!     Frequency           S11_Real           S11_Imag           S21_Real           S21_Imag           S12_Real           S12_Imag           S22_Real           S22_Imag
          50000    9.127961993e-01   -3.476902610e-03    5.628403649e-02   -4.230922088e-02    0.000000000e+00    0.000000000e+00    0.000000000e+00    0.000000000e+00
       10049500    7.468907833e-01   -2.532071173e-01    1.683236957e-01    7.902307063e-02    0.000000000e+00    0.000000000e+00    0.000000000e+00    0.000000000e+00
       20049000    5.586652160e-01   -2.546073794e-01    2.610315681e-01    1.639458165e-02    0.000000000e+00    0.000000000e+00    0.000000000e+00    0.000000000e+00
       30048500    4.657298028e-01   -2.060258538e-01    2.857967913e-01   -7.773376256e-02    0.000000000e+00    0.000000000e+00    0.000000000e+00    0.000000000e+00
       40048000    4.243524969e-01   -1.575801224e-01    2.711420655e-01   -1.665531546e-01    0.000000000e+00    0.000000000e+00    0.000000000e+00    0.000000000e+00
       50047500    4.091919363e-01   -1.170400158e-01    2.319785953e-01   -2.464019805e-01    0.000000000e+00    0.000000000e+00    0.000000000e+00    0.000000000e+00
       60047000    4.093038142e-01   -8.488243073e-02    1.716508269e-01   -3.177599907e-01    0.000000000e+00    0.000000000e+00    0.000000000e+00    0.000000000e+00
       70046500    4.213258922e-01   -6.293053925e-02    8.657551557e-02   -3.779571056e-01    0.000000000e+00    0.000000000e+00    0.000000000e+00    0.000000000e+00
       80046000    4.405648708e-01   -5.087006092e-02   -2.604776062e-02   -4.150519669e-01    0.000000000e+00    0.000000000e+00    0.000000000e+00    0.000000000e+00
       90045500    4.650417268e-01   -5.266071856e-02   -1.607182026e-01   -4.115732908e-01    0.000000000e+00    0.000000000e+00    0.000000000e+00    0.000000000e+00
      100045000    4.878717959e-01   -8.072450012e-02   -3.010187447e-01   -3.374625444e-01    0.000000000e+00    0.000000000e+00    0.000000000e+00    0.000000000e+00
      110044500    4.940559566e-01   -1.051071808e-01   -3.926114142e-01   -2.234645933e-01    0.000000000e+00    0.000000000e+00    0.000000000e+00    0.000000000e+00
      120044000    4.893912971e-01   -1.293899268e-01   -4.325145781e-01   -9.015635401e-02    0.000000000e+00    0.000000000e+00    0.000000000e+00    0.000000000e+00
      130043500    4.758214355e-01   -1.465925723e-01   -4.246173799e-01    3.716025874e-02    0.000000000e+00    0.000000000e+00    0.000000000e+00    0.000000000e+00
      140043000    4.608387649e-01   -1.557790488e-01   -3.845841289e-01    1.456556022e-01    0.000000000e+00    0.000000000e+00    0.000000000e+00    0.000000000e+00
      150042500    4.471372664e-01   -1.590203494e-01   -3.233821392e-01    2.332461774e-01    0.000000000e+00    0.000000000e+00    0.000000000e+00    0.000000000e+00
      160042000    4.373185337e-01   -1.582609564e-01   -2.471420765e-01    3.002789915e-01    0.000000000e+00    0.000000000e+00    0.000000000e+00    0.000000000e+00
      170041500    4.309015572e-01   -1.565486640e-01   -1.616616100e-01    3.457910717e-01    0.000000000e+00    0.000000000e+00    0.000000000e+00    0.000000000e+00
      180041000    4.270166457e-01   -1.551977247e-01   -6.809818000e-02    3.706978858e-01    0.000000000e+00    0.000000000e+00    0.000000000e+00    0.000000000e+00
      190040500    4.250483215e-01   -1.537437886e-01    2.831470221e-02    3.714514077e-01    0.000000000e+00    0.000000000e+00    0.000000000e+00    0.000000000e+00
      200040000    4.250438213e-01   -1.537124217e-01    1.210232750e-01    3.481875658e-01    0.000000000e+00    0.000000000e+00    0.000000000e+00    0.000000000e+00
      210039500    4.259052277e-01   -1.544910073e-01    2.046249509e-01    3.026843369e-01    0.000000000e+00    0.000000000e+00    0.000000000e+00    0.000000000e+00
      220039000    4.287673533e-01   -1.565133482e-01    2.742606699e-01    2.379871905e-01    0.000000000e+00    0.000000000e+00    0.000000000e+00    0.000000000e+00
      230038500    4.327827394e-01   -1.594311595e-01    3.251851797e-01    1.564805955e-01    0.000000000e+00    0.000000000e+00    0.000000000e+00    0.000000000e+00
      240038000    4.374011755e-01   -1.646490842e-01    3.534553349e-01    6.293620914e-02    0.000000000e+00    0.000000000e+00    0.000000000e+00    0.000000000e+00
      250037500    4.432260394e-01   -1.729087681e-01    3.542557657e-01   -3.706793487e-02    0.000000000e+00    0.000000000e+00    0.000000000e+00    0.000000000e+00
      260037000    4.493488967e-01   -1.845966876e-01    3.251112401e-01   -1.339986324e-01    0.000000000e+00    0.000000000e+00    0.000000000e+00    0.000000000e+00
      270036500    4.534990489e-01   -1.995077282e-01    2.670679688e-01   -2.177263945e-01    0.000000000e+00    0.000000000e+00    0.000000000e+00    0.000000000e+00
      280036000    4.554092586e-01   -2.180383205e-01    1.860641241e-01   -2.776116431e-01    0.000000000e+00    0.000000000e+00    0.000000000e+00    0.000000000e+00
      290035500    4.527375698e-01   -2.395198643e-01    9.248910099e-02   -3.071376979e-01    0.000000000e+00    0.000000000e+00    0.000000000e+00    0.000000000e+00
      300035000    4.441921413e-01   -2.612489164e-01   -1.255296287e-03   -3.042276502e-01    0.000000000e+00    0.000000000e+00    0.000000000e+00    0.000000000e+00
      310034500    4.302589595e-01   -2.817561328e-01   -8.344043791e-02   -2.728203833e-01    0.000000000e+00    0.000000000e+00    0.000000000e+00    0.000000000e+00
      320034000    4.109225869e-01   -2.981153727e-01   -1.456270516e-01   -2.214569002e-01    0.000000000e+00    0.000000000e+00    0.000000000e+00    0.000000000e+00
      330033500    3.890531659e-01   -3.084686995e-01   -1.846404076e-01   -1.607096493e-01    0.000000000e+00    0.000000000e+00    0.000000000e+00    0.000000000e+00
      340033000    3.658167124e-01   -3.128181994e-01   -2.026374042e-01   -9.885471314e-02    0.000000000e+00    0.000000000e+00    0.000000000e+00    0.000000000e+00
      350032500    3.454464972e-01   -3.106356859e-01   -2.042034268e-01   -4.165843874e-02    0.000000000e+00    0.000000000e+00    0.000000000e+00    0.000000000e+00
      360032000    3.291427195e-01   -3.041577041e-01   -1.940316260e-01    8.563826792e-03    0.000000000e+00    0.000000000e+00    0.000000000e+00    0.000000000e+00
      370031500    3.171727359e-01   -2.950556576e-01   -1.747424901e-01    5.280874297e-02    0.000000000e+00    0.000000000e+00    0.000000000e+00    0.000000000e+00
      380031000    3.118769526e-01   -2.850610912e-01   -1.478335410e-01    8.757057041e-02    0.000000000e+00    0.000000000e+00    0.000000000e+00    0.000000000e+00
      390030500    3.116830587e-01   -2.775222063e-01   -1.117550805e-01    1.169964150e-01    0.000000000e+00    0.000000000e+00    0.000000000e+00    0.000000000e+00
      400030000    3.154705763e-01   -2.748962045e-01   -6.807587296e-02    1.332414746e-01    0.000000000e+00    0.000000000e+00    0.000000000e+00    0.000000000e+00
      410029500    3.194296658e-01   -2.784242928e-01   -2.380551025e-02    1.323013008e-01    0.000000000e+00    0.000000000e+00    0.000000000e+00    0.000000000e+00
      420029000    3.193491399e-01   -2.866345942e-01    1.195752434e-02    1.161827445e-01    0.000000000e+00    0.000000000e+00    0.000000000e+00    0.000000000e+00
      430028500    3.135444224e-01   -2.948258221e-01    2.752145380e-02    9.487640858e-02    0.000000000e+00    0.000000000e+00    0.000000000e+00    0.000000000e+00
      440028000    3.049082756e-01   -3.007966876e-01    3.985302895e-02    7.301499695e-02    0.000000000e+00    0.000000000e+00    0.000000000e+00    0.000000000e+00
      450027500    2.946132720e-01   -3.037918806e-01    4.423656315e-02    5.433998629e-02    0.000000000e+00    0.000000000e+00    0.000000000e+00    0.000000000e+00
      460027000    2.846451402e-01   -3.047819436e-01    4.447559267e-02    4.014668986e-02    0.000000000e+00    0.000000000e+00    0.000000000e+00    0.000000000e+00
      470026500    2.755009532e-01   -3.037361503e-01    4.272416607e-02    2.954630554e-02    0.000000000e+00    0.000000000e+00    0.000000000e+00    0.000000000e+00
      480026000    2.669803202e-01   -3.013939261e-01    4.049314186e-02    2.180225588e-02    0.000000000e+00    0.000000000e+00    0.000000000e+00    0.000000000e+00
      490025500    2.606757283e-01   -2.991431653e-01    3.848276287e-02    1.606131718e-02    0.000000000e+00    0.000000000e+00    0.000000000e+00    0.000000000e+00
      500025000    2.540647686e-01   -2.965147197e-01    3.693684936e-02    1.167660113e-02    0.000000000e+00    0.000000000e+00    0.000000000e+00    0.000000000e+00
      510024500    2.503425777e-01   -2.887105644e-01    3.600810096e-02    8.150782436e-03    0.000000000e+00    0.000000000e+00    0.000000000e+00    0.000000000e+00
      520024000    2.450012565e-01   -2.860846221e-01    3.589286655e-02    5.051089916e-03    0.000000000e+00    0.000000000e+00    0.000000000e+00    0.000000000e+00
      530023500    2.401423305e-01   -2.836940885e-01    3.666625544e-02    1.627489692e-03    0.000000000e+00    0.000000000e+00    0.000000000e+00    0.000000000e+00
      540023000    2.351554781e-01   -2.809726000e-01    3.837747127e-02   -2.836336382e-03    0.000000000e+00    0.000000000e+00    0.000000000e+00    0.000000000e+00
      550022500    2.307964414e-01   -2.774723470e-01    4.055551812e-02   -9.528343566e-03    0.000000000e+00    0.000000000e+00    0.000000000e+00    0.000000000e+00
      560022000    2.271627635e-01   -2.724853456e-01    4.105390236e-02   -2.010079846e-02    0.000000000e+00    0.000000000e+00    0.000000000e+00    0.000000000e+00
      570021500    2.270339429e-01   -2.666181028e-01    3.485919535e-02   -3.394152969e-02    0.000000000e+00    0.000000000e+00    0.000000000e+00    0.000000000e+00
      580021000    2.307570130e-01   -2.627809346e-01    1.927222311e-02   -4.228757322e-02    0.000000000e+00    0.000000000e+00    0.000000000e+00    0.000000000e+00
      590020500    2.350138277e-01   -2.631489635e-01    4.008411895e-03   -3.919371963e-02    0.000000000e+00    0.000000000e+00    0.000000000e+00    0.000000000e+00
      600020000    2.368086129e-01   -2.660949230e-01   -4.017370753e-03   -3.156159446e-02    0.000000000e+00    0.000000000e+00    0.000000000e+00    0.000000000e+00
      610019500    2.365587056e-01   -2.683341205e-01   -6.984515581e-03   -2.489655651e-02    0.000000000e+00    0.000000000e+00    0.000000000e+00    0.000000000e+00
      620019000    2.360152751e-01   -2.701213360e-01   -7.776168641e-03   -2.034488879e-02    0.000000000e+00    0.000000000e+00    0.000000000e+00    0.000000000e+00
      630018500    2.354869545e-01   -2.715242505e-01   -7.810144220e-03   -1.725549065e-02    0.000000000e+00    0.000000000e+00    0.000000000e+00    0.000000000e+00
      640018000    2.347482145e-01   -2.726558447e-01   -7.640679833e-03   -1.530472003e-02    0.000000000e+00    0.000000000e+00    0.000000000e+00    0.000000000e+00
      650017500    2.348335981e-01   -2.736434340e-01   -7.579221856e-03   -1.397546008e-02    0.000000000e+00    0.000000000e+00    0.000000000e+00    0.000000000e+00
      660017000    2.341675311e-01   -2.748005986e-01   -7.668038364e-03   -1.320089400e-02    0.000000000e+00    0.000000000e+00    0.000000000e+00    0.000000000e+00
      670016500    2.346733958e-01   -2.754175365e-01   -7.863303646e-03   -1.281012688e-02    0.000000000e+00    0.000000000e+00    0.000000000e+00    0.000000000e+00
      680016000    2.342569381e-01   -2.767889500e-01   -8.350684308e-03   -1.268717274e-02    0.000000000e+00    0.000000000e+00    0.000000000e+00    0.000000000e+00
      690015500    2.358056903e-01   -2.778440118e-01   -9.088390507e-03   -1.281383447e-02    0.000000000e+00    0.000000000e+00    0.000000000e+00    0.000000000e+00
      700015000    2.352075428e-01   -2.797193825e-01   -1.007226110e-02   -1.307995897e-02    0.000000000e+00    0.000000000e+00    0.000000000e+00    0.000000000e+00
      710014500    2.351562828e-01   -2.816529274e-01   -1.149448846e-02   -1.364638656e-02    0.000000000e+00    0.000000000e+00    0.000000000e+00    0.000000000e+00
      720014000    2.352312952e-01   -2.839227319e-01   -1.364802662e-02   -1.464044210e-02    0.000000000e+00    0.000000000e+00    0.000000000e+00    0.000000000e+00
      730013500    2.349754274e-01   -2.864856720e-01   -1.698804088e-02   -1.583454199e-02    0.000000000e+00    0.000000000e+00    0.000000000e+00    0.000000000e+00
      740013000    2.336566150e-01   -2.889270782e-01   -2.248371392e-02   -1.678520069e-02    0.000000000e+00    0.000000000e+00    0.000000000e+00    0.000000000e+00
      750012500    2.313787639e-01   -2.919255495e-01   -3.107855842e-02   -1.599881425e-02    0.000000000e+00    0.000000000e+00    0.000000000e+00    0.000000000e+00
      760012000    2.266180217e-01   -2.934544086e-01   -4.315389693e-02   -9.545763955e-03    0.000000000e+00    0.000000000e+00    0.000000000e+00    0.000000000e+00
      770011500    2.212920636e-01   -2.899438739e-01   -5.257763714e-02    8.072736673e-03    0.000000000e+00    0.000000000e+00    0.000000000e+00    0.000000000e+00
      780011000    2.216132581e-01   -2.825757563e-01   -4.655150697e-02    3.085051477e-02    0.000000000e+00    0.000000000e+00    0.000000000e+00    0.000000000e+00
      790010500    2.282337099e-01   -2.788935006e-01   -2.921219543e-02    4.192432761e-02    0.000000000e+00    0.000000000e+00    0.000000000e+00    0.000000000e+00
      800010000    2.359172404e-01   -2.804043591e-01   -1.508080214e-02    4.203345254e-02    0.000000000e+00    0.000000000e+00    0.000000000e+00    0.000000000e+00
      810009500    2.410199940e-01   -2.849274576e-01   -6.370604970e-03    3.899734840e-02    0.000000000e+00    0.000000000e+00    0.000000000e+00    0.000000000e+00
      820009000    2.455391437e-01   -2.904789150e-01   -1.042574411e-03    3.612714633e-02    0.000000000e+00    0.000000000e+00    0.000000000e+00    0.000000000e+00
      830008500    2.487388700e-01   -2.968211472e-01    2.776196226e-03    3.418828547e-02    0.000000000e+00    0.000000000e+00    0.000000000e+00    0.000000000e+00
      840008000    2.519557178e-01   -3.036178648e-01    5.809377879e-03    3.297610953e-02    0.000000000e+00    0.000000000e+00    0.000000000e+00    0.000000000e+00
      850007500    2.549691796e-01   -3.106499612e-01    8.701259270e-03    3.249006346e-02    0.000000000e+00    0.000000000e+00    0.000000000e+00    0.000000000e+00
      860007000    2.567910254e-01   -3.192052245e-01    1.166113187e-02    3.265418485e-02    0.000000000e+00    0.000000000e+00    0.000000000e+00    0.000000000e+00
      870006500    2.594975233e-01   -3.281879723e-01    1.520473603e-02    3.345533088e-02    0.000000000e+00    0.000000000e+00    0.000000000e+00    0.000000000e+00
      880006000    2.625125349e-01   -3.380444646e-01    1.952197962e-02    3.472594917e-02    0.000000000e+00    0.000000000e+00    0.000000000e+00    0.000000000e+00
      890005500    2.634700239e-01   -3.498545289e-01    2.557987347e-02    3.621236235e-02    0.000000000e+00    0.000000000e+00    0.000000000e+00    0.000000000e+00
      900005000    2.640394866e-01   -3.618022799e-01    3.355738148e-02    3.768911958e-02    0.000000000e+00    0.000000000e+00    0.000000000e+00    0.000000000e+00
      910004500    2.623237073e-01   -3.754396141e-01    4.467397928e-02    3.816419095e-02    0.000000000e+00    0.000000000e+00    0.000000000e+00    0.000000000e+00
      920004000    2.583687305e-01   -3.898890018e-01    5.968526006e-02    3.614433855e-02    0.000000000e+00    0.000000000e+00    0.000000000e+00    0.000000000e+00
      930003500    2.507878244e-01   -4.040347934e-01    7.911050320e-02    2.824364603e-02    0.000000000e+00    0.000000000e+00    0.000000000e+00    0.000000000e+00
      940003000    2.386886925e-01   -4.141077101e-01    1.009070277e-01    1.007981971e-02    0.000000000e+00    0.000000000e+00    0.000000000e+00    0.000000000e+00
      950002500    2.250735760e-01   -4.175672531e-01    1.181231812e-01   -2.297700569e-02    0.000000000e+00    0.000000000e+00    0.000000000e+00    0.000000000e+00
      960002000    2.145971805e-01   -4.108826816e-01    1.185643077e-01   -6.888472289e-02    0.000000000e+00    0.000000000e+00    0.000000000e+00    0.000000000e+00
      970001500    2.170724124e-01   -3.999048769e-01    8.738703281e-02   -1.202624291e-01    0.000000000e+00    0.000000000e+00    0.000000000e+00    0.000000000e+00
      980001000    2.301408201e-01   -3.951586783e-01    4.433915764e-02   -1.457217932e-01    0.000000000e+00    0.000000000e+00    0.000000000e+00    0.000000000e+00
      990000500    2.485048324e-01   -4.010257423e-01   -7.251730422e-04   -1.515665501e-01    0.000000000e+00    0.000000000e+00    0.000000000e+00    0.000000000e+00
     1000000000    1.775963157e-01   -4.603160620e-01   -6.338944286e-02   -1.351863593e-01    0.000000000e+00    0.000000000e+00    0.000000000e+00    0.000000000e+00
