# Hz S RI R 50
          50000    9.377216101e-01   -2.401082404e-02    5.368743837e-02    2.218389139e-02    0.000000000e+00    0.000000000e+00    0.000000000e+00    0.000000000e+00
          74389    9.314208031e-01   -3.209232539e-02    5.921308696e-02    3.414300084e-02    0.000000000e+00    0.000000000e+00    0.000000000e+00    0.000000000e+00
          98778    9.277753234e-01   -4.134351760e-02    6.539164484e-02    1.140595973e-02    0.000000000e+00    0.000000000e+00    0.000000000e+00    0.000000000e+00
         123167    9.235397577e-01   -5.076556280e-02    7.657826692e-02    1.639725827e-02    0.000000000e+00    0.000000000e+00    0.000000000e+00    0.000000000e+00
         147556    8.964550495e-01   -1.124373376e-01    8.885622770e-02    1.925291680e-02    0.000000000e+00    0.000000000e+00    0.000000000e+00    0.000000000e+00
         171945    8.890572786e-01   -1.195364371e-01    1.015359610e-01    1.959376410e-02    0.000000000e+00    0.000000000e+00    0.000000000e+00    0.000000000e+00
         196334    8.801537156e-01   -1.254312545e-01    1.136548966e-01    1.743108593e-02    0.000000000e+00    0.000000000e+00    0.000000000e+00    0.000000000e+00
         220723    8.709434271e-01   -1.293066442e-01    1.246063039e-01    1.293847989e-02    0.000000000e+00    0.000000000e+00    0.000000000e+00    0.000000000e+00
         245112    8.618422747e-01   -1.316399425e-01    1.339951009e-01    6.729303859e-03    0.000000000e+00    0.000000000e+00    0.000000000e+00    0.000000000e+00
         269501    8.528926373e-01   -1.321970969e-01    1.413456500e-01   -6.123883650e-04    0.000000000e+00    0.000000000e+00    0.000000000e+00    0.000000000e+00
         293891    8.454591036e-01   -1.313427687e-01    1.467379779e-01   -8.495053276e-03    0.000000000e+00    0.000000000e+00    0.000000000e+00    0.000000000e+00
         318280    8.384057879e-01   -1.296910942e-01    1.501267701e-01   -1.658569835e-02    0.000000000e+00    0.000000000e+00    0.000000000e+00    0.000000000e+00
         342669    8.327633739e-01   -1.270358413e-01    1.518395096e-01   -2.413219400e-02    0.000000000e+00    0.000000000e+00    0.000000000e+00    0.000000000e+00
         367058    8.282174468e-01   -1.240442693e-01    1.521754712e-01   -3.101587854e-02    0.000000000e+00    0.000000000e+00    0.000000000e+00    0.000000000e+00
         391447    8.247198462e-01   -1.214498281e-01    1.514238268e-01   -3.703151643e-02    0.000000000e+00    0.000000000e+00    0.000000000e+00    0.000000000e+00
         415836    8.354207873e-01   -4.971865937e-02    1.753413081e-01    7.516288757e-02    0.000000000e+00    0.000000000e+00    0.000000000e+00    0.000000000e+00
         440225    8.341199160e-01   -4.694639891e-02    1.769683659e-01    7.030323148e-02    0.000000000e+00    0.000000000e+00    0.000000000e+00    0.000000000e+00
         464614    8.322511911e-01   -4.521941021e-02    1.776604950e-01    6.587488204e-02    0.000000000e+00    0.000000000e+00    0.000000000e+00    0.000000000e+00
         489003    8.316790462e-01   -4.416601732e-02    1.779527217e-01    6.176591292e-02    0.000000000e+00    0.000000000e+00    0.000000000e+00    0.000000000e+00
         513392    8.303582668e-01   -4.210458696e-02    1.774001271e-01    5.856034160e-02    0.000000000e+00    0.000000000e+00    0.000000000e+00    0.000000000e+00
         537781    8.314548731e-01   -4.136459529e-02    1.771253794e-01    5.567324162e-02    0.000000000e+00    0.000000000e+00    0.000000000e+00    0.000000000e+00
         562170    8.302090764e-01   -4.099617898e-02    1.764192283e-01    5.331144109e-02    0.000000000e+00    0.000000000e+00    0.000000000e+00    0.000000000e+00
         586559    8.299814463e-01   -3.993705660e-02    1.754886657e-01    5.139818415e-02    0.000000000e+00    0.000000000e+00    0.000000000e+00    0.000000000e+00
         610948    8.298877478e-01   -3.987877071e-02    1.746990383e-01    4.970193282e-02    0.000000000e+00    0.000000000e+00    0.000000000e+00    0.000000000e+00
         635337    8.298126459e-01   -4.042013362e-02    1.739980131e-01    4.842625558e-02    0.000000000e+00    0.000000000e+00    0.000000000e+00    0.000000000e+00
         659726    8.311591744e-01   -3.882818669e-02    1.733067781e-01    4.750228673e-02    0.000000000e+00    0.000000000e+00    0.000000000e+00    0.000000000e+00
         684115    8.297177553e-01   -4.037452489e-02    1.721415967e-01    4.634846374e-02    0.000000000e+00    0.000000000e+00    0.000000000e+00    0.000000000e+00
         708504    8.300807476e-01   -4.032570869e-02    1.714089811e-01    4.591320083e-02    0.000000000e+00    0.000000000e+00    0.000000000e+00    0.000000000e+00
         732893    8.297373056e-01   -4.057194665e-02    1.704807281e-01    4.545200989e-02    0.000000000e+00    0.000000000e+00    0.000000000e+00    0.000000000e+00
         757283    8.305380940e-01   -4.145312682e-02    1.698786169e-01    4.498435557e-02    0.000000000e+00    0.000000000e+00    0.000000000e+00    0.000000000e+00
         781672    8.293697834e-01   -4.155028611e-02    1.692334116e-01    4.493212327e-02    0.000000000e+00    0.000000000e+00    0.000000000e+00    0.000000000e+00
         806061    8.300850391e-01   -4.294469953e-02    1.685427725e-01    4.470051080e-02    0.000000000e+00    0.000000000e+00    0.000000000e+00    0.000000000e+00
         830450    8.302261829e-01   -4.293402284e-02    1.679049134e-01    4.471255466e-02    0.000000000e+00    0.000000000e+00    0.000000000e+00    0.000000000e+00
         854839    8.305845857e-01   -4.462198541e-02    1.680397242e-01    4.481935501e-02    0.000000000e+00    0.000000000e+00    0.000000000e+00    0.000000000e+00
         879228    8.299800158e-01   -4.484583810e-02    1.670107245e-01    4.497786239e-02    0.000000000e+00    0.000000000e+00    0.000000000e+00    0.000000000e+00
         903617    8.294954896e-01   -4.548515007e-02    1.704689562e-01    3.232371062e-02    0.000000000e+00    0.000000000e+00    0.000000000e+00    0.000000000e+00
         928006    8.294141889e-01   -4.666122794e-02    1.703667641e-01    3.262428939e-02    0.000000000e+00    0.000000000e+00    0.000000000e+00    0.000000000e+00
         952395    8.294674754e-01   -4.716020077e-02    1.697622836e-01    3.307061270e-02    0.000000000e+00    0.000000000e+00    0.000000000e+00    0.000000000e+00
         976784    8.294696212e-01   -4.829188064e-02    1.694639325e-01    3.321122751e-02    0.000000000e+00    0.000000000e+00    0.000000000e+00    0.000000000e+00
        1001173    8.294485807e-01   -4.929407686e-02    1.693470180e-01    3.360011429e-02    0.000000000e+00    0.000000000e+00    0.000000000e+00    0.000000000e+00
        1025562    8.292688131e-01   -5.044080690e-02    1.689933687e-01    3.398540616e-02    0.000000000e+00    0.000000000e+00    0.000000000e+00    0.000000000e+00
        1049951    8.286676407e-01   -5.159581825e-02    1.686682105e-01    3.421187401e-02    0.000000000e+00    0.000000000e+00    0.000000000e+00    0.000000000e+00
        1074340    8.291234374e-01   -5.228110030e-02    1.685419083e-01    3.490693122e-02    0.000000000e+00    0.000000000e+00    0.000000000e+00    0.000000000e+00
        1098729    8.287260532e-01   -5.345687270e-02    1.682614386e-01    3.525092453e-02    0.000000000e+00    0.000000000e+00    0.000000000e+00    0.000000000e+00
        1123118    8.288090825e-01   -5.472011119e-02    1.683176905e-01    3.566540033e-02    0.000000000e+00    0.000000000e+00    0.000000000e+00    0.000000000e+00
        1147507    8.284375072e-01   -5.598329008e-02    1.680811942e-01    3.618055955e-02    0.000000000e+00    0.000000000e+00    0.000000000e+00    0.000000000e+00
        1171896    8.282541633e-01   -5.663251877e-02    1.679466069e-01    3.675098717e-02    0.000000000e+00    0.000000000e+00    0.000000000e+00    0.000000000e+00
        1196285    8.280032873e-01   -5.835257471e-02    1.678005159e-01    3.707160056e-02    0.000000000e+00    0.000000000e+00    0.000000000e+00    0.000000000e+00
        1220674    8.281646967e-01   -5.933680013e-02    1.680982709e-01    3.759378940e-02    0.000000000e+00    0.000000000e+00    0.000000000e+00    0.000000000e+00
        1245064    8.279415369e-01   -6.038211659e-02    1.676965654e-01    3.821729496e-02    0.000000000e+00    0.000000000e+00    0.000000000e+00    0.000000000e+00
        1269453    8.275637627e-01   -6.136554107e-02    1.679149866e-01    3.870691732e-02    0.000000000e+00    0.000000000e+00    0.000000000e+00    0.000000000e+00
        1293842    8.272045255e-01   -6.299408525e-02    1.677057445e-01    3.915904090e-02    0.000000000e+00    0.000000000e+00    0.000000000e+00    0.000000000e+00
        1318231    8.271318078e-01   -6.370863318e-02    1.678051203e-01    3.969355673e-02    0.000000000e+00    0.000000000e+00    0.000000000e+00    0.000000000e+00
        1342620    8.269914985e-01   -6.472506374e-02    1.677908450e-01    4.018035159e-02    0.000000000e+00    0.000000000e+00    0.000000000e+00    0.000000000e+00
        1367009    8.262495995e-01   -6.585258245e-02    1.678290218e-01    4.072205350e-02    0.000000000e+00    0.000000000e+00    0.000000000e+00    0.000000000e+00
        1391398    8.263618946e-01   -6.728948653e-02    1.678580493e-01    4.120940343e-02    0.000000000e+00    0.000000000e+00    0.000000000e+00    0.000000000e+00
        1415787    8.258119226e-01   -6.830376387e-02    1.679551005e-01    4.181707650e-02    0.000000000e+00    0.000000000e+00    0.000000000e+00    0.000000000e+00
        1440176    8.265345693e-01   -6.957421452e-02    1.680902988e-01    4.233646393e-02    0.000000000e+00    0.000000000e+00    0.000000000e+00    0.000000000e+00
        1464565    8.255932331e-01   -7.064115256e-02    1.681211889e-01    4.296929762e-02    0.000000000e+00    0.000000000e+00    0.000000000e+00    0.000000000e+00
        1488954    8.252887726e-01   -7.173784822e-02    1.680811793e-01    4.342265800e-02    0.000000000e+00    0.000000000e+00    0.000000000e+00    0.000000000e+00
        1513343    8.250285983e-01   -7.318405062e-02    1.682646573e-01    4.400266707e-02    0.000000000e+00    0.000000000e+00    0.000000000e+00    0.000000000e+00
        1537732    8.246927857e-01   -7.453159243e-02    1.683259159e-01    4.450004548e-02    0.000000000e+00    0.000000000e+00    0.000000000e+00    0.000000000e+00
        1562121    8.241710067e-01   -7.554288954e-02    1.685072631e-01    4.503132775e-02    0.000000000e+00    0.000000000e+00    0.000000000e+00    0.000000000e+00
        1586510    8.236947656e-01   -7.655772567e-02    1.684842110e-01    4.562471807e-02    0.000000000e+00    0.000000000e+00    0.000000000e+00    0.000000000e+00
        1610899    8.233807683e-01   -7.773439586e-02    1.687611490e-01    4.614996910e-02    0.000000000e+00    0.000000000e+00    0.000000000e+00    0.000000000e+00
        1635288    8.232633471e-01   -7.911091298e-02    1.687357873e-01    4.673493654e-02    0.000000000e+00    0.000000000e+00    0.000000000e+00    0.000000000e+00
        1659677    8.227020502e-01   -8.039571345e-02    1.687842906e-01    4.729208723e-02    0.000000000e+00    0.000000000e+00    0.000000000e+00    0.000000000e+00
        1684066    8.226917386e-01   -8.202121407e-02    1.690820754e-01    4.778071120e-02    0.000000000e+00    0.000000000e+00    0.000000000e+00    0.000000000e+00
        1708456    8.221186399e-01   -8.248661458e-02    1.691516340e-01    4.848635197e-02    0.000000000e+00    0.000000000e+00    0.000000000e+00    0.000000000e+00
        1732845    8.219537735e-01   -8.397849649e-02    1.693877280e-01    4.896980524e-02    0.000000000e+00    0.000000000e+00    0.000000000e+00    0.000000000e+00
        1757234    8.214098811e-01   -8.497923613e-02    1.695820242e-01    4.955708236e-02    0.000000000e+00    0.000000000e+00    0.000000000e+00    0.000000000e+00
        1781623    8.213628531e-01   -8.642094582e-02    1.697661430e-01    4.998166859e-02    0.000000000e+00    0.000000000e+00    0.000000000e+00    0.000000000e+00
        1806012    8.209766746e-01   -8.734322339e-02    1.700079292e-01    5.069816113e-02    0.000000000e+00    0.000000000e+00    0.000000000e+00    0.000000000e+00
        1830401    8.202705979e-01   -8.861370385e-02    1.699665189e-01    5.118147284e-02    0.000000000e+00    0.000000000e+00    0.000000000e+00    0.000000000e+00
        1854790    8.194219470e-01   -9.003935754e-02    1.702544689e-01    5.166288465e-02    0.000000000e+00    0.000000000e+00    0.000000000e+00    0.000000000e+00
        1879179    8.196492791e-01   -9.118133783e-02    1.703916341e-01    5.232793465e-02    0.000000000e+00    0.000000000e+00    0.000000000e+00    0.000000000e+00
        1903568    8.189990520e-01   -9.233397990e-02    1.707106978e-01    5.287021771e-02    0.000000000e+00    0.000000000e+00    0.000000000e+00    0.000000000e+00
        1927957    8.189808130e-01   -9.339741617e-02    1.708383560e-01    5.334571004e-02    0.000000000e+00    0.000000000e+00    0.000000000e+00    0.000000000e+00
        1952346    8.179354072e-01   -9.488242865e-02    1.710778326e-01    5.391228199e-02    0.000000000e+00    0.000000000e+00    0.000000000e+00    0.000000000e+00
        1976735    8.178005219e-01   -9.555491805e-02    1.713002175e-01    5.460103229e-02    0.000000000e+00    0.000000000e+00    0.000000000e+00    0.000000000e+00
        2001124    8.175132871e-01   -9.729966521e-02    1.715855449e-01    5.509798229e-02    0.000000000e+00    0.000000000e+00    0.000000000e+00    0.000000000e+00
        2025513    8.169640303e-01   -9.772951156e-02    1.717213988e-01    5.573809519e-02    0.000000000e+00    0.000000000e+00    0.000000000e+00    0.000000000e+00
        2049902    8.164665699e-01   -9.943828732e-02    1.720084250e-01    5.619240925e-02    0.000000000e+00    0.000000000e+00    0.000000000e+00    0.000000000e+00
        2074291    8.160137534e-01   -1.001839563e-01    1.722128540e-01    5.671570450e-02    0.000000000e+00    0.000000000e+00    0.000000000e+00    0.000000000e+00
        2098680    8.157187700e-01   -1.019635648e-01    1.725887507e-01    5.720905215e-02    0.000000000e+00    0.000000000e+00    0.000000000e+00    0.000000000e+00
        2123069    8.154148459e-01   -1.026727706e-01    1.728019863e-01    5.781249702e-02    0.000000000e+00    0.000000000e+00    0.000000000e+00    0.000000000e+00
        2147458    8.150697351e-01   -1.041499302e-01    1.730209887e-01    5.842382461e-02    0.000000000e+00    0.000000000e+00    0.000000000e+00    0.000000000e+00
        2171848    8.144425750e-01   -1.058729142e-01    1.732906997e-01    5.884670094e-02    0.000000000e+00    0.000000000e+00    0.000000000e+00    0.000000000e+00
        2196237    8.142155409e-01   -1.067508683e-01    1.734899133e-01    5.925049633e-02    0.000000000e+00    0.000000000e+00    0.000000000e+00    0.000000000e+00
        2220626    8.134446740e-01   -1.080586091e-01    1.737840325e-01    5.990029126e-02    0.000000000e+00    0.000000000e+00    0.000000000e+00    0.000000000e+00
        2245015    8.128240705e-01   -1.084474027e-01    1.739993244e-01    6.045034155e-02    0.000000000e+00    0.000000000e+00    0.000000000e+00    0.000000000e+00
        2269404    8.124741912e-01   -1.098584309e-01    1.743996888e-01    6.103334948e-02    0.000000000e+00    0.000000000e+00    0.000000000e+00    0.000000000e+00
        2293793    8.121528625e-01   -1.109637469e-01    1.745891571e-01    6.151694804e-02    0.000000000e+00    0.000000000e+00    0.000000000e+00    0.000000000e+00
        2318182    8.110770583e-01   -1.123348698e-01    1.748463362e-01    6.209606677e-02    0.000000000e+00    0.000000000e+00    0.000000000e+00    0.000000000e+00
        2342571    8.115133047e-01   -1.133159250e-01    1.751834005e-01    6.272707880e-02    0.000000000e+00    0.000000000e+00    0.000000000e+00    0.000000000e+00
        2366960    8.101093173e-01   -1.148770973e-01    1.755402237e-01    6.315517426e-02    0.000000000e+00    0.000000000e+00    0.000000000e+00    0.000000000e+00
        2391349    8.100765944e-01   -1.156805307e-01    1.757792234e-01    6.365438551e-02    0.000000000e+00    0.000000000e+00    0.000000000e+00    0.000000000e+00
        2415738    8.094896674e-01   -1.172547787e-01    1.762102693e-01    6.434362382e-02    0.000000000e+00    0.000000000e+00    0.000000000e+00    0.000000000e+00
        2440127    8.089126348e-01   -1.177649051e-01    1.764202118e-01    6.483051926e-02    0.000000000e+00    0.000000000e+00    0.000000000e+00    0.000000000e+00
        2464516    8.087184429e-01   -1.193731278e-01    1.767193973e-01    6.522598863e-02    0.000000000e+00    0.000000000e+00    0.000000000e+00    0.000000000e+00
        2488905    8.078600764e-01   -1.202440113e-01    1.770886332e-01    6.587722898e-02    0.000000000e+00    0.000000000e+00    0.000000000e+00    0.000000000e+00
        2513294    8.076534867e-01   -1.217438877e-01    1.773364097e-01    6.631812453e-02    0.000000000e+00    0.000000000e+00    0.000000000e+00    0.000000000e+00
        2537683    8.071287274e-01   -1.230653003e-01    1.778287590e-01    6.690555811e-02    0.000000000e+00    0.000000000e+00    0.000000000e+00    0.000000000e+00
        2562072    8.066356778e-01   -1.239336058e-01    1.780260503e-01    6.734379381e-02    0.000000000e+00    0.000000000e+00    0.000000000e+00    0.000000000e+00
        2586461    8.059557676e-01   -1.253087521e-01    1.785072237e-01    6.788845360e-02    0.000000000e+00    0.000000000e+00    0.000000000e+00    0.000000000e+00
        2610850    8.055409193e-01   -1.259960830e-01    1.788311005e-01    6.845644861e-02    0.000000000e+00    0.000000000e+00    0.000000000e+00    0.000000000e+00
        2635239    8.047237396e-01   -1.275688410e-01    1.791804582e-01    6.893966347e-02    0.000000000e+00    0.000000000e+00    0.000000000e+00    0.000000000e+00
        2659629    8.047605753e-01   -1.284215003e-01    1.796242744e-01    6.953437626e-02    0.000000000e+00    0.000000000e+00    0.000000000e+00    0.000000000e+00
        2684018    8.036090136e-01   -1.293301880e-01    1.796825379e-01    6.991570443e-02    0.000000000e+00    0.000000000e+00    0.000000000e+00    0.000000000e+00
        2708407    8.031454682e-01   -1.305029690e-01    1.802820265e-01    7.053246349e-02    0.000000000e+00    0.000000000e+00    0.000000000e+00    0.000000000e+00
        2732796    8.030441403e-01   -1.317677349e-01    1.805504560e-01    7.100930810e-02    0.000000000e+00    0.000000000e+00    0.000000000e+00    0.000000000e+00
        2757185    8.019843102e-01   -1.330900341e-01    1.808660179e-01    7.149957865e-02    0.000000000e+00    0.000000000e+00    0.000000000e+00    0.000000000e+00
        2781574    8.016686440e-01   -1.337938309e-01    1.812698096e-01    7.203518599e-02    0.000000000e+00    0.000000000e+00    0.000000000e+00    0.000000000e+00
        2805963    8.009344339e-01   -1.352486461e-01    1.816971153e-01    7.251155376e-02    0.000000000e+00    0.000000000e+00    0.000000000e+00    0.000000000e+00
        2830352    8.006311059e-01   -1.361692250e-01    1.819439679e-01    7.301873714e-02    0.000000000e+00    0.000000000e+00    0.000000000e+00    0.000000000e+00
        2854741    7.999668121e-01   -1.377471387e-01    1.824658215e-01    7.349013537e-02    0.000000000e+00    0.000000000e+00    0.000000000e+00    0.000000000e+00
        2879130    7.993651628e-01   -1.386625320e-01    1.827887297e-01    7.395907491e-02    0.000000000e+00    0.000000000e+00    0.000000000e+00    0.000000000e+00
        2903519    7.990544438e-01   -1.396028847e-01    1.831465214e-01    7.455164194e-02    0.000000000e+00    0.000000000e+00    0.000000000e+00    0.000000000e+00
