# Hz S RI R 50
          50000    9.334334135e-01   -2.398664877e-02   -3.293156624e-06    4.288740456e-06    0.000000000e+00    0.000000000e+00    0.000000000e+00    0.000000000e+00
          74389    9.266874790e-01   -3.180942312e-02    6.074085832e-06   -4.088506103e-06    0.000000000e+00    0.000000000e+00    0.000000000e+00    0.000000000e+00
          98778    9.238235354e-01   -4.097760469e-02    5.450099707e-06   -3.024004400e-06    0.000000000e+00    0.000000000e+00    0.000000000e+00    0.000000000e+00
         123167    9.200534225e-01   -5.044892058e-02   -1.653656363e-05   -6.088055670e-06    0.000000000e+00    0.000000000e+00    0.000000000e+00    0.000000000e+00
         147556    9.153866768e-01   -5.917765573e-02   -1.336168498e-05   -4.365108907e-06    0.000000000e+00    0.000000000e+00    0.000000000e+00    0.000000000e+00
         171945    8.878279328e-01   -1.189675257e-01   -1.824460924e-05   -1.086853445e-05    0.000000000e+00    0.000000000e+00    0.000000000e+00    0.000000000e+00
         196334    8.802312613e-01   -1.258805692e-01    1.625157893e-05   -6.576068699e-06    0.000000000e+00    0.000000000e+00    0.000000000e+00    0.000000000e+00
         220723    8.718883991e-01   -1.311135888e-01   -2.825632691e-06   -8.960254490e-06    0.000000000e+00    0.000000000e+00    0.000000000e+00    0.000000000e+00
         245112    8.628951907e-01   -1.345369071e-01   -5.216337740e-06   -1.456215978e-05    0.000000000e+00    0.000000000e+00    0.000000000e+00    0.000000000e+00
         269501    8.533689976e-01   -1.368166059e-01   -1.136679202e-05    1.254118979e-05    0.000000000e+00    0.000000000e+00    0.000000000e+00    0.000000000e+00
         293891    8.456733227e-01   -1.378753334e-01    7.341615856e-06   -9.797513485e-06    0.000000000e+00    0.000000000e+00    0.000000000e+00    0.000000000e+00
         318280    8.380371332e-01   -1.370721608e-01   -8.449889719e-06    5.029141903e-06    0.000000000e+00    0.000000000e+00    0.000000000e+00    0.000000000e+00
         342669    8.311861753e-01   -1.353014708e-01    6.479211152e-06   -1.847278327e-05    0.000000000e+00    0.000000000e+00    0.000000000e+00    0.000000000e+00
         367058    8.253305554e-01   -1.336625963e-01    1.426599920e-05    1.052953303e-05    0.000000000e+00    0.000000000e+00    0.000000000e+00    0.000000000e+00
         391447    8.208242059e-01   -1.313462257e-01   -5.480833352e-06   -5.288980901e-06    0.000000000e+00    0.000000000e+00    0.000000000e+00    0.000000000e+00
         415836    8.308926225e-01   -5.976123363e-02   -8.407980204e-06   -1.384876668e-05    0.000000000e+00    0.000000000e+00    0.000000000e+00    0.000000000e+00
         440225    8.282434940e-01   -5.745247006e-02    2.743676305e-06   -3.810040653e-06    0.000000000e+00    0.000000000e+00    0.000000000e+00    0.000000000e+00
         464614    8.253242373e-01   -5.534487218e-02    3.600213677e-05   -7.228925824e-06    0.000000000e+00    0.000000000e+00    0.000000000e+00    0.000000000e+00
         489003    8.234536648e-01   -5.443408340e-02   -2.083275467e-05   -8.860602975e-06    0.000000000e+00    0.000000000e+00    0.000000000e+00    0.000000000e+00
         513392    8.234975338e-01   -5.210820585e-02    2.152286470e-06    3.230292350e-05    0.000000000e+00    0.000000000e+00    0.000000000e+00    0.000000000e+00
         537781    8.204690814e-01   -5.127039179e-02   -8.862465620e-06   -1.379847527e-05    0.000000000e+00    0.000000000e+00    0.000000000e+00    0.000000000e+00
         562170    8.211634755e-01   -4.994103312e-02    1.600012183e-06    1.055095345e-05    0.000000000e+00    0.000000000e+00    0.000000000e+00    0.000000000e+00
         586559    8.202638030e-01   -4.981861636e-02   -3.019813448e-05   -1.901574433e-05    0.000000000e+00    0.000000000e+00    0.000000000e+00    0.000000000e+00
         610948    8.209390640e-01   -4.918176681e-02   -1.391768456e-05    4.711654037e-05    0.000000000e+00    0.000000000e+00    0.000000000e+00    0.000000000e+00
         635337    8.193647861e-01   -4.820433259e-02   -1.848116517e-05   -2.354197204e-05    0.000000000e+00    0.000000000e+00    0.000000000e+00    0.000000000e+00
         659726    8.195305467e-01   -4.804719612e-02    4.092510790e-05   -2.838484943e-05    0.000000000e+00    0.000000000e+00    0.000000000e+00    0.000000000e+00
         684115    8.198007941e-01   -4.901304096e-02   -3.154203296e-05    1.673307270e-05    0.000000000e+00    0.000000000e+00    0.000000000e+00    0.000000000e+00
         708504    8.202096820e-01   -4.834341630e-02   -4.418008029e-05    1.639034599e-05    0.000000000e+00    0.000000000e+00    0.000000000e+00    0.000000000e+00
         732893    8.200321198e-01   -4.883276671e-02    2.684537321e-05    3.102328628e-05    0.000000000e+00    0.000000000e+00    0.000000000e+00    0.000000000e+00
         757283    8.198128939e-01   -4.973468557e-02    1.528207213e-05    5.858298391e-05    0.000000000e+00    0.000000000e+00    0.000000000e+00    0.000000000e+00
         781672    8.197367191e-01   -5.029745400e-02    8.936971426e-06    1.536682248e-05    0.000000000e+00    0.000000000e+00    0.000000000e+00    0.000000000e+00
         806061    8.203771114e-01   -5.006069690e-02   -1.438148320e-05    2.949964255e-05    0.000000000e+00    0.000000000e+00    0.000000000e+00    0.000000000e+00
         830450    8.197904825e-01   -5.170538649e-02   -3.881752491e-06    2.489890903e-05    0.000000000e+00    0.000000000e+00    0.000000000e+00    0.000000000e+00
         854839    8.197914958e-01   -5.169579759e-02   -2.347864211e-06   -4.057120532e-05    0.000000000e+00    0.000000000e+00    0.000000000e+00    0.000000000e+00
         879228    8.198367953e-01   -5.299165472e-02   -3.738887608e-05   -2.583488822e-05    0.000000000e+00    0.000000000e+00    0.000000000e+00    0.000000000e+00
         903617    8.193891048e-01   -5.341260508e-02    9.031966329e-06   -4.173256457e-05    0.000000000e+00    0.000000000e+00    0.000000000e+00    0.000000000e+00
         928006    8.199692965e-01   -5.532080308e-02    2.069491893e-05   -2.200156450e-05    0.000000000e+00    0.000000000e+00    0.000000000e+00    0.000000000e+00
         952395    8.190793395e-01   -5.581827834e-02   -2.393219620e-05   -1.398846507e-06    0.000000000e+00    0.000000000e+00    0.000000000e+00    0.000000000e+00
         976784    8.203213215e-01   -5.696482956e-02    8.625909686e-06   -3.046821803e-05    0.000000000e+00    0.000000000e+00    0.000000000e+00    0.000000000e+00
        1001173    8.193538785e-01   -5.796812475e-02    1.337844878e-05   -4.360452294e-06    0.000000000e+00    0.000000000e+00    0.000000000e+00    0.000000000e+00
        1025562    8.196365237e-01   -5.895785987e-02   -6.156042218e-07   -2.212356776e-05    0.000000000e+00    0.000000000e+00    0.000000000e+00    0.000000000e+00
        1049951    8.193824291e-01   -6.015746295e-02    3.358907998e-05    1.707486808e-05    0.000000000e+00    0.000000000e+00    0.000000000e+00    0.000000000e+00
        1074340    8.190588951e-01   -6.198400259e-02    2.226140350e-05   -1.395493746e-05    0.000000000e+00    0.000000000e+00    0.000000000e+00    0.000000000e+00
        1098729    8.194094300e-01   -6.232098117e-02    6.478000432e-05   -6.537884474e-07    0.000000000e+00    0.000000000e+00    0.000000000e+00    0.000000000e+00
        1123118    8.190887570e-01   -6.375223398e-02    5.075708032e-07   -5.875714123e-06    0.000000000e+00    0.000000000e+00    0.000000000e+00    0.000000000e+00
        1147507    8.183984160e-01   -6.453268975e-02   -2.054497600e-05   -1.810863614e-05    0.000000000e+00    0.000000000e+00    0.000000000e+00    0.000000000e+00
        1171896    8.187017441e-01   -6.625615060e-02   -1.192931086e-05    3.545451909e-05    0.000000000e+00    0.000000000e+00    0.000000000e+00    0.000000000e+00
        1196285    8.179647326e-01   -6.710806489e-02   -4.733912647e-06    8.216127753e-06    0.000000000e+00    0.000000000e+00    0.000000000e+00    0.000000000e+00
        1220674    8.185240030e-01   -6.816445291e-02    1.855567098e-05    1.185573637e-05    0.000000000e+00    0.000000000e+00    0.000000000e+00    0.000000000e+00
        1245064    8.174175024e-01   -6.990862638e-02   -4.714261740e-05   -2.807844430e-05    0.000000000e+00    0.000000000e+00    0.000000000e+00    0.000000000e+00
        1269453    8.181567788e-01   -7.103624195e-02    5.178805441e-05   -3.934837878e-06    0.000000000e+00    0.000000000e+00    0.000000000e+00    0.000000000e+00
        1293842    8.173992634e-01   -7.297229022e-02    1.882202923e-06   -1.152046025e-06    0.000000000e+00    0.000000000e+00    0.000000000e+00    0.000000000e+00
        1318231    8.177857995e-01   -7.297656685e-02    4.109181464e-05   -2.205651253e-05    0.000000000e+00    0.000000000e+00    0.000000000e+00    0.000000000e+00
        1342620    8.172081709e-01   -7.474130392e-02   -8.235685527e-06   -4.500057548e-05    0.000000000e+00    0.000000000e+00    0.000000000e+00    0.000000000e+00
        1367009    8.168337941e-01   -7.590442896e-02    4.722829908e-05    2.960301936e-05    0.000000000e+00    0.000000000e+00    0.000000000e+00    0.000000000e+00
        1391398    8.167163730e-01   -7.752645016e-02   -2.931989729e-05    1.445040107e-05    0.000000000e+00    0.000000000e+00    0.000000000e+00    0.000000000e+00
        1415787    8.162091970e-01   -7.866901159e-02    7.859431207e-06   -3.959052265e-06    0.000000000e+00    0.000000000e+00    0.000000000e+00    0.000000000e+00
        1440176    8.161365390e-01   -8.003205806e-02    2.868659794e-05    2.354383469e-06    0.000000000e+00    0.000000000e+00    0.000000000e+00    0.000000000e+00
        1464565    8.162079453e-01   -8.161579072e-02    1.998804510e-05    1.373793930e-05    0.000000000e+00    0.000000000e+00    0.000000000e+00    0.000000000e+00
        1488954    8.159343600e-01   -8.265414834e-02   -9.158626199e-06   -5.437899381e-05    0.000000000e+00    0.000000000e+00    0.000000000e+00    0.000000000e+00
        1513343    8.155287504e-01   -8.394669741e-02    8.048489690e-06   -1.471675932e-05    0.000000000e+00    0.000000000e+00    0.000000000e+00    0.000000000e+00
        1537732    8.150336146e-01   -8.480753750e-02   -1.387670636e-06    9.864568710e-06    0.000000000e+00    0.000000000e+00    0.000000000e+00    0.000000000e+00
        1562121    8.148776889e-01   -8.681254834e-02   -3.351178020e-05   -2.697855234e-05    0.000000000e+00    0.000000000e+00    0.000000000e+00    0.000000000e+00
        1586510    8.142747879e-01   -8.803628385e-02    2.876762301e-05    1.697987318e-05    0.000000000e+00    0.000000000e+00    0.000000000e+00    0.000000000e+00
        1610899    8.141170740e-01   -8.900053054e-02    1.869164407e-06    1.836754382e-05    0.000000000e+00    0.000000000e+00    0.000000000e+00    0.000000000e+00
        1635288    8.135799766e-01   -9.102118760e-02    1.164432615e-05    6.875954568e-06    0.000000000e+00    0.000000000e+00    0.000000000e+00    0.000000000e+00
        1659677    8.133537769e-01   -9.189229459e-02   -3.084819764e-05    3.460794687e-06    0.000000000e+00    0.000000000e+00    0.000000000e+00    0.000000000e+00
        1684066    8.129239082e-01   -9.347467870e-02   -1.907162368e-05    1.361593604e-05    0.000000000e+00    0.000000000e+00    0.000000000e+00    0.000000000e+00
        1708456    8.125569820e-01   -9.455254674e-02    1.101475209e-05    7.646158338e-07    0.000000000e+00    0.000000000e+00    0.000000000e+00    0.000000000e+00
        1732845    8.123804927e-01   -9.629236162e-02    2.862326801e-05    1.965090632e-06    0.000000000e+00    0.000000000e+00    0.000000000e+00    0.000000000e+00
        1757234    8.122541904e-01   -9.712895006e-02   -7.319264114e-06   -9.793788195e-06    0.000000000e+00    0.000000000e+00    0.000000000e+00    0.000000000e+00
        1781623    8.115639091e-01   -9.880273044e-02    1.814868301e-05    1.964904368e-05    0.000000000e+00    0.000000000e+00    0.000000000e+00    0.000000000e+00
        1806012    8.113813996e-01   -9.969160706e-02   -3.440491855e-05   -2.906005830e-05    0.000000000e+00    0.000000000e+00    0.000000000e+00    0.000000000e+00
        1830401    8.107092381e-01   -1.015871912e-01   -7.405877113e-06    1.971703023e-05    0.000000000e+00    0.000000000e+00    0.000000000e+00    0.000000000e+00
        1854790    8.099932671e-01   -1.024990752e-01   -5.966238678e-05   -2.665631473e-05    0.000000000e+00    0.000000000e+00    0.000000000e+00    0.000000000e+00
        1879179    8.099669814e-01   -1.041529253e-01   -8.908100426e-06    1.393165439e-05    0.000000000e+00    0.000000000e+00    0.000000000e+00    0.000000000e+00
        1903568    8.092979193e-01   -1.051236540e-01    1.719221473e-05    1.563690603e-05    0.000000000e+00    0.000000000e+00    0.000000000e+00    0.000000000e+00
        1927957    8.095808029e-01   -1.074705869e-01    2.021994442e-05    3.691576421e-05    0.000000000e+00    0.000000000e+00    0.000000000e+00    0.000000000e+00
        1952346    8.086622953e-01   -1.084034517e-01   -8.995644748e-06   -2.604629844e-05    0.000000000e+00    0.000000000e+00    0.000000000e+00    0.000000000e+00
        1976735    8.086364865e-01   -1.095748171e-01   -7.464550436e-06    5.646049976e-05    0.000000000e+00    0.000000000e+00    0.000000000e+00    0.000000000e+00
        2001124    8.076066375e-01   -1.110261604e-01    2.198852599e-06    4.489906132e-06    0.000000000e+00    0.000000000e+00    0.000000000e+00    0.000000000e+00
        2025513    8.081351519e-01   -1.124892831e-01   -1.334026456e-05   -8.161179721e-06    0.000000000e+00    0.000000000e+00    0.000000000e+00    0.000000000e+00
        2049902    8.066524863e-01   -1.134684980e-01   -3.536045551e-05   -2.147629857e-05    0.000000000e+00    0.000000000e+00    0.000000000e+00    0.000000000e+00
        2074291    8.070384860e-01   -1.151029989e-01   -2.246070653e-05    2.436339855e-05    0.000000000e+00    0.000000000e+00    0.000000000e+00    0.000000000e+00
        2098680    8.064706326e-01   -1.165411249e-01    2.531800419e-05   -1.785345376e-05    0.000000000e+00    0.000000000e+00    0.000000000e+00    0.000000000e+00
        2123069    8.061273098e-01   -1.175348312e-01   -3.580003977e-05   -3.134738654e-05    0.000000000e+00    0.000000000e+00    0.000000000e+00    0.000000000e+00
        2147458    8.054001927e-01   -1.190428585e-01   -1.370534301e-05   -4.616938531e-05    0.000000000e+00    0.000000000e+00    0.000000000e+00    0.000000000e+00
        2171848    8.048195839e-01   -1.198958382e-01   -3.183726221e-05    1.752190292e-05    0.000000000e+00    0.000000000e+00    0.000000000e+00    0.000000000e+00
        2196237    8.048930168e-01   -1.216409728e-01   -3.399979323e-05   -1.910421997e-05    0.000000000e+00    0.000000000e+00    0.000000000e+00    0.000000000e+00
        2220626    8.040597439e-01   -1.229725257e-01    1.870281994e-05    5.386956036e-05    0.000000000e+00    0.000000000e+00    0.000000000e+00    0.000000000e+00
        2245015    8.034740686e-01   -1.234925389e-01    1.536682248e-07   -1.504085958e-06    0.000000000e+00    0.000000000e+00    0.000000000e+00    0.000000000e+00
        2269404    8.033161163e-01   -1.253565997e-01   -2.868287265e-05    1.857988536e-06    0.000000000e+00    0.000000000e+00    0.000000000e+00    0.000000000e+00
        2293793    8.026395440e-01   -1.264950633e-01   -3.123842180e-05   -3.933906555e-05    0.000000000e+00    0.000000000e+00    0.000000000e+00    0.000000000e+00
        2318182    8.025424480e-01   -1.278908402e-01   -1.697428524e-05   -1.859199256e-05    0.000000000e+00    0.000000000e+00    0.000000000e+00    0.000000000e+00
        2342571    8.019772768e-01   -1.299931109e-01   -9.109266102e-06   -4.665926099e-06    0.000000000e+00    0.000000000e+00    0.000000000e+00    0.000000000e+00
        2366960    8.010765910e-01   -1.306221485e-01    1.262873411e-05    1.167133451e-05    0.000000000e+00    0.000000000e+00    0.000000000e+00    0.000000000e+00
        2391349    8.010188341e-01   -1.324318945e-01   -7.755123079e-06    7.599964738e-05    0.000000000e+00    0.000000000e+00    0.000000000e+00    0.000000000e+00
        2415738    8.001767397e-01   -1.334163994e-01    3.430526704e-05   -1.416727901e-05    0.000000000e+00    0.000000000e+00    0.000000000e+00    0.000000000e+00
        2440127    7.999513149e-01   -1.346571296e-01    1.412443817e-05   -3.554113209e-05    0.000000000e+00    0.000000000e+00    0.000000000e+00    0.000000000e+00
        2464516    7.995384336e-01   -1.361247599e-01   -3.154296428e-05    1.764111221e-05    0.000000000e+00    0.000000000e+00    0.000000000e+00    0.000000000e+00
        2488905    7.987880111e-01   -1.375786811e-01    2.328306437e-06   -3.001652658e-06    0.000000000e+00    0.000000000e+00    0.000000000e+00    0.000000000e+00
        2513294    7.986173034e-01   -1.382007152e-01    2.434104681e-05    8.399505168e-05    0.000000000e+00    0.000000000e+00    0.000000000e+00    0.000000000e+00
        2537683    7.982443571e-01   -1.403657943e-01   -3.066845238e-05   -5.850568414e-06    0.000000000e+00    0.000000000e+00    0.000000000e+00    0.000000000e+00
        2562072    7.970492840e-01   -1.408877373e-01    9.681098163e-06   -6.264913827e-05    0.000000000e+00    0.000000000e+00    0.000000000e+00    0.000000000e+00
        2586461    7.968980670e-01   -1.423492730e-01    3.229081631e-05    6.747432053e-06    0.000000000e+00    0.000000000e+00    0.000000000e+00    0.000000000e+00
        2610850    7.963395119e-01   -1.436512619e-01    6.259419024e-06   -3.089383245e-05    0.000000000e+00    0.000000000e+00    0.000000000e+00    0.000000000e+00
        2635239    7.956686616e-01   -1.452828348e-01   -3.430061042e-06   -2.312473953e-06    0.000000000e+00    0.000000000e+00    0.000000000e+00    0.000000000e+00
        2659629    7.953904867e-01   -1.469025314e-01    3.338791430e-06    4.842970520e-05    0.000000000e+00    0.000000000e+00    0.000000000e+00    0.000000000e+00
        2684018    7.945808768e-01   -1.480439007e-01   -1.579150558e-05   -1.832377166e-05    0.000000000e+00    0.000000000e+00    0.000000000e+00    0.000000000e+00
        2708407    7.941033244e-01   -1.489845067e-01   -3.742147237e-05   -2.754852176e-06    0.000000000e+00    0.000000000e+00    0.000000000e+00    0.000000000e+00
        2732796    7.938906550e-01   -1.504572779e-01    1.522712409e-05   -1.392234117e-05    0.000000000e+00    0.000000000e+00    0.000000000e+00    0.000000000e+00
        2757185    7.930232882e-01   -1.520016193e-01    8.000060916e-07    1.725368202e-05    0.000000000e+00    0.000000000e+00    0.000000000e+00    0.000000000e+00
        2781574    7.921117544e-01   -1.526099294e-01    3.075227141e-06   -4.073604941e-06    0.000000000e+00    0.000000000e+00    0.000000000e+00    0.000000000e+00
        2805963    7.919577956e-01   -1.547062993e-01   -2.541579306e-05    3.220140934e-05    0.000000000e+00    0.000000000e+00    0.000000000e+00    0.000000000e+00
        2830352    7.913968563e-01   -1.552422643e-01    2.820603549e-05    3.002304584e-05    0.000000000e+00    0.000000000e+00    0.000000000e+00    0.000000000e+00
        2854741    7.910605073e-01   -1.570044905e-01    1.189578325e-05   -1.755729318e-05    0.000000000e+00    0.000000000e+00    0.000000000e+00    0.000000000e+00
        2879130    7.897849679e-01   -1.579447240e-01   -9.993091226e-06   -1.744553447e-05    0.000000000e+00    0.000000000e+00    0.000000000e+00    0.000000000e+00
        2903519    7.899896502e-01   -1.594536453e-01    1.723505557e-05   -2.305023372e-06    0.000000000e+00    0.000000000e+00    0.000000000e+00    0.000000000e+00
